
Note-[RT_BS] Larger stack needed
  Note: Bumping stack limit from 8192 to 8250 Kbytes.

Chronologic VCS simulator copyright 1991-2016
Contains Synopsys proprietary information.
Compiler version L-2016.06_Full64; Runtime version L-2016.06_Full64;  Oct  4 21:11 2026
UVM_INFO /usr/synopsys/vcs-L-2016.06//etc/uvm-1.2/base/uvm_root.svh(402) @ 0: reporter [UVM/RELNOTES] 
----------------------------------------------------------------
UVM-1.2.Synopsys
(C) 2007-2014 Mentor Graphics Corporation
(C) 2007-2014 Cadence Design Systems, Inc.
(C) 2006-2014 Synopsys, Inc.
(C) 2011-2013 Cypress Semiconductor Corp.
(C) 2013-2014 NVIDIA Corporation
----------------------------------------------------------------

  ***********       IMPORTANT RELEASE NOTES         ************

  You are using a version of the UVM library that has been compiled
  with `UVM_NO_DEPRECATED undefined.
  See http://www.eda.org/svdb/view.php?id=3313 for more details.

  You are using a version of the UVM library that has been compiled
  with `UVM_OBJECT_DO_NOT_NEED_CONSTRUCTOR undefined.
  See http://www.eda.org/svdb/view.php?id=3770 for more details.

      (Specify +UVM_NO_RELNOTES to turn off this notice)


 VCS Coverage Metrics Release L-2016.06_Full64 Copyright (c) 1991-2016 by Synopsys Inc.
UVM_INFO ../tb/apb_top.sv(44) @ 0: reporter [TB_TOP] Starting UVM Test ...
UVM_INFO @ 0: reporter [RNTST] Running test apb_random_test...
VCD+ Writer L-2016.06_Full64 Copyright (c) 1991-2016 by Synopsys Inc.
UVM_INFO @ 0: reporter [TIMOUTSET] '+UVM_TIMEOUT=9200000' provided on the command line is being applied.
UVM_INFO ../tb/apb_test.sv(11) @ 0: uvm_test_top [apb_random_test] Test build phase
UVM_INFO ../tb/apb_env.sv(13) @ 0: uvm_test_top.env [apb_env] Env build phase

Note-[FCICIO] Instance coverage is ON
/mnt/mydata/APB_UVM/sim/../tb/apb_coverage.sv, 28
apb_pkg, "apb_pkg::apb_coverage::cg"
  Instance coverage is set (option.per_instance = 1) for covergroup 
  'apb_pkg::apb_coverage::cg'
  
  Covergroup Instance: tb_top.me.obj.cg 
  Design hierarchy: apb_pkg


Note-[FCICIO] Instance coverage is ON
/mnt/mydata/APB_UVM/sim/../tb/apb_coverage.sv, 86
apb_pkg, "apb_pkg::apb_coverage::cg_b2b"
  Instance coverage is set (option.per_instance = 1) for covergroup 
  'apb_pkg::apb_coverage::cg_b2b'
  
  Covergroup Instance: tb_top.me.obj.cg_b2b 
  Design hierarchy: apb_pkg

UVM_INFO ../tb/apb_agent.sv(13) @ 0: uvm_test_top.env.agent [apb_agent] Agent build phase
UVM_INFO ../tb/apb_sequencer.sv(6) @ 0: uvm_test_top.env.agent.sequencer [apb_sequencer] sequence build phase
UVM_INFO ../tb/apb_driver.sv(11) @ 0: uvm_test_top.env.agent.driver [apb_driver] Driver build phase
UVM_INFO ../tb/apb_monitor.sv(12) @ 0: uvm_test_top.env.agent.monitor [apb_mon] apb_mon build phase
UVM_INFO ../tb/apb_env.sv(21) @ 0: uvm_test_top.env [apb_env] Env connect phase
--------------------------------------------------------------
Name                       Type                    Size  Value
--------------------------------------------------------------
uvm_test_top               apb_random_test         -     @343 
  env                      apb_env                 -     @358 
    agent                  apb_agent               -     @377 
      driver               apb_driver              -     @417 
        rsp_port           uvm_analysis_port       -     @436 
        seq_item_port      uvm_seq_item_pull_port  -     @426 
      monitor              apb_mon                 -     @585 
        ap                 uvm_analysis_port       -     @597 
      sequencer            apb_sequencer           -     @446 
        rsp_export         uvm_analysis_export     -     @455 
        seq_item_export    uvm_seq_item_pull_imp   -     @573 
        arbitration_queue  array                   0     -    
        lock_queue         array                   0     -    
        num_last_reqs      integral                32    'd1  
        num_last_rsps      integral                32    'd1  
    cov                    apb_coverage            -     @395 
      analysis_imp         uvm_analysis_imp        -     @404 
    scb                    apb_scoreboard          -     @386 
      item_export          uvm_analysis_imp        -     @616 
--------------------------------------------------------------
UVM_INFO ../tb/apb_driver.sv(17) @ 0: uvm_test_top.env.agent.driver [apb_driver] Driver run phase started 
UVM_INFO ../tb/apb_monitor.sv(18) @ 0: uvm_test_top.env.agent.monitor [apb_mon] apb_mon run phase started 
UVM_INFO ../tb/apb_test.sv(18) @ 0: uvm_test_top [apb_random_test] Test run phase
UVM_INFO ../tb/apb_base_seq.sv(28) @ 0: uvm_test_top.env.agent.sequencer@@seq [apb_base_seq] Sequence body started
UVM_INFO ../tb/apb_driver.sv(20) @ 0: uvm_test_top.env.agent.driver [apb_driver] Driving transaction : addr = 0x3158 | write = 1 | wdata = 0x0479645efa5c6307 
UVM_INFO ../tb/apb_monitor.sv(29) @ 65: uvm_test_top.env.agent.monitor [Monitor] addr : 0x3158 | write : 1 | wdata : 0x479645efa5c6307 
UVM_INFO ../tb/apb_driver.sv(20) @ 65: uvm_test_top.env.agent.driver [apb_driver] Driving transaction : addr = 0xc768 | write = 1 | wdata = 0x097d5dc66689e4c 
UVM_INFO ../tb/apb_monitor.sv(29) @ 125: uvm_test_top.env.agent.monitor [Monitor] addr : 0xc768 | write : 1 | wdata : 0x97d5dc66689e4c 
UVM_INFO ../tb/apb_driver.sv(20) @ 125: uvm_test_top.env.agent.driver [apb_driver] Driving transaction : addr = 0x76a0 | write = 1 | wdata = 0x09f868cdd882db7b5 
UVM_INFO ../tb/apb_monitor.sv(29) @ 185: uvm_test_top.env.agent.monitor [Monitor] addr : 0x76a0 | write : 1 | wdata : 0x9f868cdd882db7b5 
UVM_INFO ../tb/apb_driver.sv(20) @ 185: uvm_test_top.env.agent.driver [apb_driver] Driving transaction : addr = 0xa908 | write = 1 | wdata = 0x0bc911f2d08fc2258 
UVM_INFO ../tb/apb_monitor.sv(29) @ 245: uvm_test_top.env.agent.monitor [Monitor] addr : 0xa908 | write : 1 | wdata : 0xbc911f2d08fc2258 
UVM_INFO ../tb/apb_driver.sv(20) @ 245: uvm_test_top.env.agent.driver [apb_driver] Driving transaction : addr = 0xe488 | write = 1 | wdata = 0x0d5357affa01cae03 
UVM_INFO ../tb/apb_monitor.sv(29) @ 305: uvm_test_top.env.agent.monitor [Monitor] addr : 0xe488 | write : 1 | wdata : 0xd5357affa01cae03 
UVM_INFO ../tb/apb_driver.sv(20) @ 305: uvm_test_top.env.agent.driver [apb_driver] Driving transaction : addr = 0x2e48 | write = 1 | wdata = 0x0b1e2282199d2f58f 
UVM_INFO ../tb/apb_monitor.sv(29) @ 365: uvm_test_top.env.agent.monitor [Monitor] addr : 0x2e48 | write : 1 | wdata : 0xb1e2282199d2f58f 
UVM_INFO ../tb/apb_driver.sv(20) @ 365: uvm_test_top.env.agent.driver [apb_driver] Driving transaction : addr = 0x78e8 | write = 1 | wdata = 0x04a3cb8b57bb1ebf1 
UVM_INFO ../tb/apb_monitor.sv(29) @ 425: uvm_test_top.env.agent.monitor [Monitor] addr : 0x78e8 | write : 1 | wdata : 0x4a3cb8b57bb1ebf1 
UVM_INFO ../tb/apb_driver.sv(20) @ 425: uvm_test_top.env.agent.driver [apb_driver] Driving transaction : addr = 0xbc30 | write = 1 | wdata = 0x0809065edba50a994 
UVM_INFO ../tb/apb_monitor.sv(29) @ 485: uvm_test_top.env.agent.monitor [Monitor] addr : 0xbc30 | write : 1 | wdata : 0x809065edba50a994 
UVM_INFO ../tb/apb_driver.sv(20) @ 485: uvm_test_top.env.agent.driver [apb_driver] Driving transaction : addr = 0x3228 | write = 1 | wdata = 0x0dc936e82597befef 
UVM_INFO ../tb/apb_monitor.sv(29) @ 545: uvm_test_top.env.agent.monitor [Monitor] addr : 0x3228 | write : 1 | wdata : 0xdc936e82597befef 
UVM_INFO ../tb/apb_driver.sv(20) @ 545: uvm_test_top.env.agent.driver [apb_driver] Driving transaction : addr = 0xc818 | write = 1 | wdata = 0x02092e3df3b5a39d6 
UVM_INFO ../tb/apb_monitor.sv(29) @ 605: uvm_test_top.env.agent.monitor [Monitor] addr : 0xc818 | write : 1 | wdata : 0x2092e3df3b5a39d6 
UVM_INFO ../tb/apb_driver.sv(20) @ 605: uvm_test_top.env.agent.driver [apb_driver] Driving transaction : addr = 0x28a8 | write = 1 | wdata = 0x0ffb146cd6a1d7576 
UVM_INFO ../tb/apb_monitor.sv(29) @ 665: uvm_test_top.env.agent.monitor [Monitor] addr : 0x28a8 | write : 1 | wdata : 0xffb146cd6a1d7576 
UVM_INFO ../tb/apb_driver.sv(20) @ 665: uvm_test_top.env.agent.driver [apb_driver] Driving transaction : addr = 0xebc0 | write = 1 | wdata = 0x01b252bbaaa444f83 
UVM_INFO ../tb/apb_monitor.sv(29) @ 725: uvm_test_top.env.agent.monitor [Monitor] addr : 0xebc0 | write : 1 | wdata : 0x1b252bbaaa444f83 
UVM_INFO ../tb/apb_driver.sv(20) @ 725: uvm_test_top.env.agent.driver [apb_driver] Driving transaction : addr = 0xd460 | write = 1 | wdata = 0x06f97f9fd5331c497 
UVM_INFO ../tb/apb_monitor.sv(29) @ 785: uvm_test_top.env.agent.monitor [Monitor] addr : 0xd460 | write : 1 | wdata : 0x6f97f9fd5331c497 
UVM_INFO ../tb/apb_driver.sv(20) @ 785: uvm_test_top.env.agent.driver [apb_driver] Driving transaction : addr = 0x3d40 | write = 1 | wdata = 0x0efd38ef162ebcc22 
UVM_INFO ../tb/apb_monitor.sv(29) @ 845: uvm_test_top.env.agent.monitor [Monitor] addr : 0x3d40 | write : 1 | wdata : 0xefd38ef162ebcc22 
UVM_INFO ../tb/apb_driver.sv(20) @ 845: uvm_test_top.env.agent.driver [apb_driver] Driving transaction : addr = 0xca78 | write = 1 | wdata = 0x01c7e4ad513a0e8c8 
UVM_INFO ../tb/apb_monitor.sv(29) @ 905: uvm_test_top.env.agent.monitor [Monitor] addr : 0xca78 | write : 1 | wdata : 0x1c7e4ad513a0e8c8 
UVM_INFO ../tb/apb_driver.sv(20) @ 905: uvm_test_top.env.agent.driver [apb_driver] Driving transaction : addr = 0xb608 | write = 1 | wdata = 0x0f2b9d7854f4c00a0 
UVM_INFO ../tb/apb_monitor.sv(29) @ 965: uvm_test_top.env.agent.monitor [Monitor] addr : 0xb608 | write : 1 | wdata : 0xf2b9d7854f4c00a0 
UVM_INFO ../tb/apb_driver.sv(20) @ 965: uvm_test_top.env.agent.driver [apb_driver] Driving transaction : addr = 0x3660 | write = 1 | wdata = 0x0dd810cff209c329d 
UVM_INFO ../tb/apb_monitor.sv(29) @ 1025: uvm_test_top.env.agent.monitor [Monitor] addr : 0x3660 | write : 1 | wdata : 0xdd810cff209c329d 
UVM_INFO ../tb/apb_driver.sv(20) @ 1025: uvm_test_top.env.agent.driver [apb_driver] Driving transaction : addr = 0xec70 | write = 1 | wdata = 0x0592345ff28dfc6c2 
UVM_INFO ../tb/apb_monitor.sv(29) @ 1085: uvm_test_top.env.agent.monitor [Monitor] addr : 0xec70 | write : 1 | wdata : 0x592345ff28dfc6c2 
UVM_INFO ../tb/apb_driver.sv(20) @ 1085: uvm_test_top.env.agent.driver [apb_driver] Driving transaction : addr = 0xdd38 | write = 1 | wdata = 0x0c667bdf57e3ae83c 
UVM_INFO ../tb/apb_monitor.sv(29) @ 1145: uvm_test_top.env.agent.monitor [Monitor] addr : 0xdd38 | write : 1 | wdata : 0xc667bdf57e3ae83c 
UVM_INFO ../tb/apb_driver.sv(20) @ 1145: uvm_test_top.env.agent.driver [apb_driver] Driving transaction : addr = 0xcab0 | write = 1 | wdata = 0x0152ca9b43318d130 
UVM_INFO ../tb/apb_monitor.sv(29) @ 1205: uvm_test_top.env.agent.monitor [Monitor] addr : 0xcab0 | write : 1 | wdata : 0x152ca9b43318d130 
UVM_INFO ../tb/apb_driver.sv(20) @ 1205: uvm_test_top.env.agent.driver [apb_driver] Driving transaction : addr = 0x9950 | write = 1 | wdata = 0x0cc0b34343a38c496 
UVM_INFO ../tb/apb_monitor.sv(29) @ 1265: uvm_test_top.env.agent.monitor [Monitor] addr : 0x9950 | write : 1 | wdata : 0xcc0b34343a38c496 
UVM_INFO ../tb/apb_driver.sv(20) @ 1265: uvm_test_top.env.agent.driver [apb_driver] Driving transaction : addr = 0xc948 | write = 1 | wdata = 0x09232499ee8bc9027 
UVM_INFO ../tb/apb_monitor.sv(29) @ 1325: uvm_test_top.env.agent.monitor [Monitor] addr : 0xc948 | write : 1 | wdata : 0x9232499ee8bc9027 
UVM_INFO ../tb/apb_driver.sv(20) @ 1325: uvm_test_top.env.agent.driver [apb_driver] Driving transaction : addr = 0xc550 | write = 1 | wdata = 0x0fa62b5b93f7f7493 
UVM_INFO ../tb/apb_monitor.sv(29) @ 1385: uvm_test_top.env.agent.monitor [Monitor] addr : 0xc550 | write : 1 | wdata : 0xfa62b5b93f7f7493 
UVM_INFO ../tb/apb_driver.sv(20) @ 1385: uvm_test_top.env.agent.driver [apb_driver] Driving transaction : addr = 0x1f20 | write = 1 | wdata = 0x03d42a920c49a54 
UVM_INFO ../tb/apb_monitor.sv(29) @ 1445: uvm_test_top.env.agent.monitor [Monitor] addr : 0x1f20 | write : 1 | wdata : 0x3d42a920c49a54 
UVM_INFO ../tb/apb_driver.sv(20) @ 1445: uvm_test_top.env.agent.driver [apb_driver] Driving transaction : addr = 0xf128 | write = 1 | wdata = 0x034f44443c4af9ae0 
UVM_INFO ../tb/apb_monitor.sv(29) @ 1505: uvm_test_top.env.agent.monitor [Monitor] addr : 0xf128 | write : 1 | wdata : 0x34f44443c4af9ae0 
UVM_INFO ../tb/apb_driver.sv(20) @ 1505: uvm_test_top.env.agent.driver [apb_driver] Driving transaction : addr = 0x4d48 | write = 1 | wdata = 0x0d0c5561d23fb5980 
UVM_INFO ../tb/apb_monitor.sv(29) @ 1565: uvm_test_top.env.agent.monitor [Monitor] addr : 0x4d48 | write : 1 | wdata : 0xd0c5561d23fb5980 
UVM_INFO ../tb/apb_driver.sv(20) @ 1565: uvm_test_top.env.agent.driver [apb_driver] Driving transaction : addr = 0xb090 | write = 1 | wdata = 0x0c358de4a1c94a5ac 
UVM_INFO ../tb/apb_monitor.sv(29) @ 1625: uvm_test_top.env.agent.monitor [Monitor] addr : 0xb090 | write : 1 | wdata : 0xc358de4a1c94a5ac 
UVM_INFO ../tb/apb_driver.sv(20) @ 1625: uvm_test_top.env.agent.driver [apb_driver] Driving transaction : addr = 0x590 | write = 1 | wdata = 0x0a9d6ff8986fd8f1c 
UVM_INFO ../tb/apb_monitor.sv(29) @ 1685: uvm_test_top.env.agent.monitor [Monitor] addr : 0x590 | write : 1 | wdata : 0xa9d6ff8986fd8f1c 
UVM_INFO ../tb/apb_driver.sv(20) @ 1685: uvm_test_top.env.agent.driver [apb_driver] Driving transaction : addr = 0xa000 | write = 1 | wdata = 0x06cbe552f0bf62939 
UVM_INFO ../tb/apb_monitor.sv(29) @ 1745: uvm_test_top.env.agent.monitor [Monitor] addr : 0xa000 | write : 1 | wdata : 0x6cbe552f0bf62939 
UVM_INFO ../tb/apb_driver.sv(20) @ 1745: uvm_test_top.env.agent.driver [apb_driver] Driving transaction : addr = 0x5d60 | write = 1 | wdata = 0x083d670253c093239 
UVM_INFO ../tb/apb_monitor.sv(29) @ 1805: uvm_test_top.env.agent.monitor [Monitor] addr : 0x5d60 | write : 1 | wdata : 0x83d670253c093239 
UVM_INFO ../tb/apb_driver.sv(20) @ 1805: uvm_test_top.env.agent.driver [apb_driver] Driving transaction : addr = 0x26d8 | write = 1 | wdata = 0x0f0a29d7a322a6602 
UVM_INFO ../tb/apb_monitor.sv(29) @ 1865: uvm_test_top.env.agent.monitor [Monitor] addr : 0x26d8 | write : 1 | wdata : 0xf0a29d7a322a6602 
UVM_INFO ../tb/apb_driver.sv(20) @ 1865: uvm_test_top.env.agent.driver [apb_driver] Driving transaction : addr = 0xe150 | write = 1 | wdata = 0x02bbea409f45d439d 
UVM_INFO ../tb/apb_monitor.sv(29) @ 1925: uvm_test_top.env.agent.monitor [Monitor] addr : 0xe150 | write : 1 | wdata : 0x2bbea409f45d439d 
UVM_INFO ../tb/apb_driver.sv(20) @ 1925: uvm_test_top.env.agent.driver [apb_driver] Driving transaction : addr = 0xa490 | write = 1 | wdata = 0x0ef05ff9b2a73f0b2 
UVM_INFO ../tb/apb_monitor.sv(29) @ 1985: uvm_test_top.env.agent.monitor [Monitor] addr : 0xa490 | write : 1 | wdata : 0xef05ff9b2a73f0b2 
UVM_INFO ../tb/apb_driver.sv(20) @ 1985: uvm_test_top.env.agent.driver [apb_driver] Driving transaction : addr = 0x8938 | write = 1 | wdata = 0x0ebcf237a1cbbdc9a 
UVM_INFO ../tb/apb_monitor.sv(29) @ 2045: uvm_test_top.env.agent.monitor [Monitor] addr : 0x8938 | write : 1 | wdata : 0xebcf237a1cbbdc9a 
UVM_INFO ../tb/apb_driver.sv(20) @ 2045: uvm_test_top.env.agent.driver [apb_driver] Driving transaction : addr = 0xd7a8 | write = 1 | wdata = 0x0542eae2f8c980593 
UVM_INFO ../tb/apb_monitor.sv(29) @ 2105: uvm_test_top.env.agent.monitor [Monitor] addr : 0xd7a8 | write : 1 | wdata : 0x542eae2f8c980593 
UVM_INFO ../tb/apb_driver.sv(20) @ 2105: uvm_test_top.env.agent.driver [apb_driver] Driving transaction : addr = 0x5098 | write = 1 | wdata = 0x03d8d15bfcab44c94 
UVM_INFO ../tb/apb_monitor.sv(29) @ 2165: uvm_test_top.env.agent.monitor [Monitor] addr : 0x5098 | write : 1 | wdata : 0x3d8d15bfcab44c94 
UVM_INFO ../tb/apb_driver.sv(20) @ 2165: uvm_test_top.env.agent.driver [apb_driver] Driving transaction : addr = 0x1c28 | write = 1 | wdata = 0x0b5e449e29e86869c 
UVM_INFO ../tb/apb_monitor.sv(29) @ 2225: uvm_test_top.env.agent.monitor [Monitor] addr : 0x1c28 | write : 1 | wdata : 0xb5e449e29e86869c 
UVM_INFO ../tb/apb_driver.sv(20) @ 2225: uvm_test_top.env.agent.driver [apb_driver] Driving transaction : addr = 0x95f0 | write = 1 | wdata = 0x0210147804218bf0 
UVM_INFO ../tb/apb_monitor.sv(29) @ 2285: uvm_test_top.env.agent.monitor [Monitor] addr : 0x95f0 | write : 1 | wdata : 0x210147804218bf0 
UVM_INFO ../tb/apb_driver.sv(20) @ 2285: uvm_test_top.env.agent.driver [apb_driver] Driving transaction : addr = 0xff0 | write = 1 | wdata = 0x07b6f44c21e2c1fb6 
UVM_INFO ../tb/apb_monitor.sv(29) @ 2345: uvm_test_top.env.agent.monitor [Monitor] addr : 0xff0 | write : 1 | wdata : 0x7b6f44c21e2c1fb6 
UVM_INFO ../tb/apb_driver.sv(20) @ 2345: uvm_test_top.env.agent.driver [apb_driver] Driving transaction : addr = 0x1df8 | write = 1 | wdata = 0x0d10d19eb19e8aeee 
UVM_INFO ../tb/apb_monitor.sv(29) @ 2405: uvm_test_top.env.agent.monitor [Monitor] addr : 0x1df8 | write : 1 | wdata : 0xd10d19eb19e8aeee 
UVM_INFO ../tb/apb_driver.sv(20) @ 2405: uvm_test_top.env.agent.driver [apb_driver] Driving transaction : addr = 0xb1b8 | write = 1 | wdata = 0x080a48877fe1f5890 
UVM_INFO ../tb/apb_monitor.sv(29) @ 2465: uvm_test_top.env.agent.monitor [Monitor] addr : 0xb1b8 | write : 1 | wdata : 0x80a48877fe1f5890 
UVM_INFO ../tb/apb_driver.sv(20) @ 2465: uvm_test_top.env.agent.driver [apb_driver] Driving transaction : addr = 0x5470 | write = 1 | wdata = 0x0d9fef50d09c700d6 
UVM_INFO ../tb/apb_monitor.sv(29) @ 2525: uvm_test_top.env.agent.monitor [Monitor] addr : 0x5470 | write : 1 | wdata : 0xd9fef50d09c700d6 
UVM_INFO ../tb/apb_driver.sv(20) @ 2525: uvm_test_top.env.agent.driver [apb_driver] Driving transaction : addr = 0x6b38 | write = 1 | wdata = 0x02ab0113801cabbc3 
UVM_INFO ../tb/apb_monitor.sv(29) @ 2585: uvm_test_top.env.agent.monitor [Monitor] addr : 0x6b38 | write : 1 | wdata : 0x2ab0113801cabbc3 
UVM_INFO ../tb/apb_driver.sv(20) @ 2585: uvm_test_top.env.agent.driver [apb_driver] Driving transaction : addr = 0xa0 | write = 1 | wdata = 0x023ca1a393ab838e9 
UVM_INFO ../tb/apb_monitor.sv(29) @ 2645: uvm_test_top.env.agent.monitor [Monitor] addr : 0xa0 | write : 1 | wdata : 0x23ca1a393ab838e9 
UVM_INFO ../tb/apb_driver.sv(20) @ 2645: uvm_test_top.env.agent.driver [apb_driver] Driving transaction : addr = 0x49b0 | write = 1 | wdata = 0x0e6665dc009988902 
UVM_INFO ../tb/apb_monitor.sv(29) @ 2705: uvm_test_top.env.agent.monitor [Monitor] addr : 0x49b0 | write : 1 | wdata : 0xe6665dc009988902 
UVM_INFO ../tb/apb_driver.sv(20) @ 2705: uvm_test_top.env.agent.driver [apb_driver] Driving transaction : addr = 0x68e0 | write = 1 | wdata = 0x0c8fd2065df52758b 
UVM_INFO ../tb/apb_monitor.sv(29) @ 2765: uvm_test_top.env.agent.monitor [Monitor] addr : 0x68e0 | write : 1 | wdata : 0xc8fd2065df52758b 
UVM_INFO ../tb/apb_driver.sv(20) @ 2765: uvm_test_top.env.agent.driver [apb_driver] Driving transaction : addr = 0xe700 | write = 1 | wdata = 0x0438b9d1e93edcbdb 
UVM_INFO ../tb/apb_monitor.sv(29) @ 2825: uvm_test_top.env.agent.monitor [Monitor] addr : 0xe700 | write : 1 | wdata : 0x438b9d1e93edcbdb 
UVM_INFO ../tb/apb_driver.sv(20) @ 2825: uvm_test_top.env.agent.driver [apb_driver] Driving transaction : addr = 0x2058 | write = 1 | wdata = 0x06ea87a56ee51028f 
UVM_INFO ../tb/apb_monitor.sv(29) @ 2885: uvm_test_top.env.agent.monitor [Monitor] addr : 0x2058 | write : 1 | wdata : 0x6ea87a56ee51028f 
UVM_INFO ../tb/apb_driver.sv(20) @ 2885: uvm_test_top.env.agent.driver [apb_driver] Driving transaction : addr = 0x7408 | write = 1 | wdata = 0x07e91c3b71f075506 
UVM_INFO ../tb/apb_monitor.sv(29) @ 2945: uvm_test_top.env.agent.monitor [Monitor] addr : 0x7408 | write : 1 | wdata : 0x7e91c3b71f075506 
UVM_INFO ../tb/apb_driver.sv(20) @ 2945: uvm_test_top.env.agent.driver [apb_driver] Driving transaction : addr = 0xd9d8 | write = 1 | wdata = 0x037294ed8f239380 
UVM_INFO ../tb/apb_monitor.sv(29) @ 3005: uvm_test_top.env.agent.monitor [Monitor] addr : 0xd9d8 | write : 1 | wdata : 0x37294ed8f239380 
UVM_INFO ../tb/apb_driver.sv(20) @ 3005: uvm_test_top.env.agent.driver [apb_driver] Driving transaction : addr = 0x6ca8 | write = 1 | wdata = 0x0f843b7f7f4e933e1 
UVM_INFO ../tb/apb_monitor.sv(29) @ 3065: uvm_test_top.env.agent.monitor [Monitor] addr : 0x6ca8 | write : 1 | wdata : 0xf843b7f7f4e933e1 
UVM_INFO ../tb/apb_driver.sv(20) @ 3065: uvm_test_top.env.agent.driver [apb_driver] Driving transaction : addr = 0xc1d0 | write = 1 | wdata = 0x040054ee4b819761e 
UVM_INFO ../tb/apb_monitor.sv(29) @ 3125: uvm_test_top.env.agent.monitor [Monitor] addr : 0xc1d0 | write : 1 | wdata : 0x40054ee4b819761e 
UVM_INFO ../tb/apb_driver.sv(20) @ 3125: uvm_test_top.env.agent.driver [apb_driver] Driving transaction : addr = 0x9888 | write = 1 | wdata = 0x014dbacc01e6262a4 
UVM_INFO ../tb/apb_monitor.sv(29) @ 3185: uvm_test_top.env.agent.monitor [Monitor] addr : 0x9888 | write : 1 | wdata : 0x14dbacc01e6262a4 
UVM_INFO ../tb/apb_driver.sv(20) @ 3185: uvm_test_top.env.agent.driver [apb_driver] Driving transaction : addr = 0x52a0 | write = 1 | wdata = 0x0bef48678bfd26e10 
UVM_INFO ../tb/apb_monitor.sv(29) @ 3245: uvm_test_top.env.agent.monitor [Monitor] addr : 0x52a0 | write : 1 | wdata : 0xbef48678bfd26e10 
UVM_INFO ../tb/apb_driver.sv(20) @ 3245: uvm_test_top.env.agent.driver [apb_driver] Driving transaction : addr = 0x9e08 | write = 1 | wdata = 0x06a30aa0ed44408bd 
UVM_INFO ../tb/apb_monitor.sv(29) @ 3305: uvm_test_top.env.agent.monitor [Monitor] addr : 0x9e08 | write : 1 | wdata : 0x6a30aa0ed44408bd 
UVM_INFO ../tb/apb_driver.sv(20) @ 3305: uvm_test_top.env.agent.driver [apb_driver] Driving transaction : addr = 0x110 | write = 1 | wdata = 0x083402aaf7085529f 
UVM_INFO ../tb/apb_monitor.sv(29) @ 3365: uvm_test_top.env.agent.monitor [Monitor] addr : 0x110 | write : 1 | wdata : 0x83402aaf7085529f 
UVM_INFO ../tb/apb_driver.sv(20) @ 3365: uvm_test_top.env.agent.driver [apb_driver] Driving transaction : addr = 0x8698 | write = 1 | wdata = 0x0fd36615fbdadd2d2 
UVM_INFO ../tb/apb_monitor.sv(29) @ 3425: uvm_test_top.env.agent.monitor [Monitor] addr : 0x8698 | write : 1 | wdata : 0xfd36615fbdadd2d2 
UVM_INFO ../tb/apb_driver.sv(20) @ 3425: uvm_test_top.env.agent.driver [apb_driver] Driving transaction : addr = 0x1b20 | write = 1 | wdata = 0x03bb7df0330f1fdba 
UVM_INFO ../tb/apb_monitor.sv(29) @ 3485: uvm_test_top.env.agent.monitor [Monitor] addr : 0x1b20 | write : 1 | wdata : 0x3bb7df0330f1fdba 
UVM_INFO ../tb/apb_driver.sv(20) @ 3485: uvm_test_top.env.agent.driver [apb_driver] Driving transaction : addr = 0xd6c8 | write = 1 | wdata = 0x0142a2d8d36178215 
UVM_INFO ../tb/apb_monitor.sv(29) @ 3545: uvm_test_top.env.agent.monitor [Monitor] addr : 0xd6c8 | write : 1 | wdata : 0x142a2d8d36178215 
UVM_INFO ../tb/apb_driver.sv(20) @ 3545: uvm_test_top.env.agent.driver [apb_driver] Driving transaction : addr = 0x9d00 | write = 1 | wdata = 0x0f6e526c170c04617 
UVM_INFO ../tb/apb_monitor.sv(29) @ 3605: uvm_test_top.env.agent.monitor [Monitor] addr : 0x9d00 | write : 1 | wdata : 0xf6e526c170c04617 
UVM_INFO ../tb/apb_driver.sv(20) @ 3605: uvm_test_top.env.agent.driver [apb_driver] Driving transaction : addr = 0xf310 | write = 1 | wdata = 0x0ba00471ade793564 
UVM_INFO ../tb/apb_monitor.sv(29) @ 3665: uvm_test_top.env.agent.monitor [Monitor] addr : 0xf310 | write : 1 | wdata : 0xba00471ade793564 
UVM_INFO ../tb/apb_driver.sv(20) @ 3665: uvm_test_top.env.agent.driver [apb_driver] Driving transaction : addr = 0x3c68 | write = 1 | wdata = 0x081a9fcea572359cb 
UVM_INFO ../tb/apb_monitor.sv(29) @ 3725: uvm_test_top.env.agent.monitor [Monitor] addr : 0x3c68 | write : 1 | wdata : 0x81a9fcea572359cb 
UVM_INFO ../tb/apb_driver.sv(20) @ 3725: uvm_test_top.env.agent.driver [apb_driver] Driving transaction : addr = 0xc6e0 | write = 1 | wdata = 0x092682b264ade1513 
UVM_INFO ../tb/apb_monitor.sv(29) @ 3785: uvm_test_top.env.agent.monitor [Monitor] addr : 0xc6e0 | write : 1 | wdata : 0x92682b264ade1513 
UVM_INFO ../tb/apb_driver.sv(20) @ 3785: uvm_test_top.env.agent.driver [apb_driver] Driving transaction : addr = 0x7260 | write = 1 | wdata = 0x0d67789042dc255c7 
UVM_INFO ../tb/apb_monitor.sv(29) @ 3845: uvm_test_top.env.agent.monitor [Monitor] addr : 0x7260 | write : 1 | wdata : 0xd67789042dc255c7 
UVM_INFO ../tb/apb_driver.sv(20) @ 3845: uvm_test_top.env.agent.driver [apb_driver] Driving transaction : addr = 0x2f90 | write = 1 | wdata = 0x08e378e772f14d079 
UVM_INFO ../tb/apb_monitor.sv(29) @ 3905: uvm_test_top.env.agent.monitor [Monitor] addr : 0x2f90 | write : 1 | wdata : 0x8e378e772f14d079 
UVM_INFO ../tb/apb_driver.sv(20) @ 3905: uvm_test_top.env.agent.driver [apb_driver] Driving transaction : addr = 0x7d18 | write = 1 | wdata = 0x0ca7837fb078ef1f2 
UVM_INFO ../tb/apb_monitor.sv(29) @ 3965: uvm_test_top.env.agent.monitor [Monitor] addr : 0x7d18 | write : 1 | wdata : 0xca7837fb078ef1f2 
UVM_INFO ../tb/apb_driver.sv(20) @ 3965: uvm_test_top.env.agent.driver [apb_driver] Driving transaction : addr = 0x3a00 | write = 1 | wdata = 0x0d12585621fba1a61 
UVM_INFO ../tb/apb_monitor.sv(29) @ 4025: uvm_test_top.env.agent.monitor [Monitor] addr : 0x3a00 | write : 1 | wdata : 0xd12585621fba1a61 
UVM_INFO ../tb/apb_driver.sv(20) @ 4025: uvm_test_top.env.agent.driver [apb_driver] Driving transaction : addr = 0xefa0 | write = 1 | wdata = 0x07151fa14ba321a5f 
UVM_INFO ../tb/apb_monitor.sv(29) @ 4085: uvm_test_top.env.agent.monitor [Monitor] addr : 0xefa0 | write : 1 | wdata : 0x7151fa14ba321a5f 
UVM_INFO ../tb/apb_driver.sv(20) @ 4085: uvm_test_top.env.agent.driver [apb_driver] Driving transaction : addr = 0xb990 | write = 1 | wdata = 0x0930daf5a22d87e83 
UVM_INFO ../tb/apb_monitor.sv(29) @ 4145: uvm_test_top.env.agent.monitor [Monitor] addr : 0xb990 | write : 1 | wdata : 0x930daf5a22d87e83 
UVM_INFO ../tb/apb_driver.sv(20) @ 4145: uvm_test_top.env.agent.driver [apb_driver] Driving transaction : addr = 0x8df0 | write = 1 | wdata = 0x02fbfed3ce8e64cbf 
UVM_INFO ../tb/apb_monitor.sv(29) @ 4205: uvm_test_top.env.agent.monitor [Monitor] addr : 0x8df0 | write : 1 | wdata : 0x2fbfed3ce8e64cbf 
UVM_INFO ../tb/apb_driver.sv(20) @ 4205: uvm_test_top.env.agent.driver [apb_driver] Driving transaction : addr = 0x5638 | write = 1 | wdata = 0x0b49c34e2c306c141 
UVM_INFO ../tb/apb_monitor.sv(29) @ 4265: uvm_test_top.env.agent.monitor [Monitor] addr : 0x5638 | write : 1 | wdata : 0xb49c34e2c306c141 
UVM_INFO ../tb/apb_driver.sv(20) @ 4265: uvm_test_top.env.agent.driver [apb_driver] Driving transaction : addr = 0x3e00 | write = 1 | wdata = 0x0a2e0339c22cc156a 
UVM_INFO ../tb/apb_monitor.sv(29) @ 4325: uvm_test_top.env.agent.monitor [Monitor] addr : 0x3e00 | write : 1 | wdata : 0xa2e0339c22cc156a 
UVM_INFO ../tb/apb_driver.sv(20) @ 4325: uvm_test_top.env.agent.driver [apb_driver] Driving transaction : addr = 0x41a0 | write = 1 | wdata = 0x0261565524932913b 
UVM_INFO ../tb/apb_monitor.sv(29) @ 4385: uvm_test_top.env.agent.monitor [Monitor] addr : 0x41a0 | write : 1 | wdata : 0x261565524932913b 
UVM_INFO ../tb/apb_driver.sv(20) @ 4385: uvm_test_top.env.agent.driver [apb_driver] Driving transaction : addr = 0xc4d8 | write = 1 | wdata = 0x08f56caa89fea403b 
UVM_INFO ../tb/apb_monitor.sv(29) @ 4445: uvm_test_top.env.agent.monitor [Monitor] addr : 0xc4d8 | write : 1 | wdata : 0x8f56caa89fea403b 
UVM_INFO ../tb/apb_driver.sv(20) @ 4445: uvm_test_top.env.agent.driver [apb_driver] Driving transaction : addr = 0x2dd0 | write = 1 | wdata = 0x09b34a706553b0abd 
UVM_INFO ../tb/apb_monitor.sv(29) @ 4505: uvm_test_top.env.agent.monitor [Monitor] addr : 0x2dd0 | write : 1 | wdata : 0x9b34a706553b0abd 
UVM_INFO ../tb/apb_driver.sv(20) @ 4505: uvm_test_top.env.agent.driver [apb_driver] Driving transaction : addr = 0x80b0 | write = 1 | wdata = 0x0694bcb6163b9fbd1 
UVM_INFO ../tb/apb_monitor.sv(29) @ 4565: uvm_test_top.env.agent.monitor [Monitor] addr : 0x80b0 | write : 1 | wdata : 0x694bcb6163b9fbd1 
UVM_INFO ../tb/apb_driver.sv(20) @ 4565: uvm_test_top.env.agent.driver [apb_driver] Driving transaction : addr = 0xd220 | write = 1 | wdata = 0x0fc800605278f4679 
UVM_INFO ../tb/apb_monitor.sv(29) @ 4625: uvm_test_top.env.agent.monitor [Monitor] addr : 0xd220 | write : 1 | wdata : 0xfc800605278f4679 
UVM_INFO ../tb/apb_driver.sv(20) @ 4625: uvm_test_top.env.agent.driver [apb_driver] Driving transaction : addr = 0x3e48 | write = 1 | wdata = 0x05a2c87e08f7ba52d 
UVM_INFO ../tb/apb_monitor.sv(29) @ 4685: uvm_test_top.env.agent.monitor [Monitor] addr : 0x3e48 | write : 1 | wdata : 0x5a2c87e08f7ba52d 
UVM_INFO ../tb/apb_driver.sv(20) @ 4685: uvm_test_top.env.agent.driver [apb_driver] Driving transaction : addr = 0xb880 | write = 1 | wdata = 0x0daec85f2dadfd95c 
UVM_INFO ../tb/apb_monitor.sv(29) @ 4745: uvm_test_top.env.agent.monitor [Monitor] addr : 0xb880 | write : 1 | wdata : 0xdaec85f2dadfd95c 
UVM_INFO ../tb/apb_driver.sv(20) @ 4745: uvm_test_top.env.agent.driver [apb_driver] Driving transaction : addr = 0xe378 | write = 1 | wdata = 0x085007d1c7ab0ff67 
UVM_INFO ../tb/apb_monitor.sv(29) @ 4805: uvm_test_top.env.agent.monitor [Monitor] addr : 0xe378 | write : 1 | wdata : 0x85007d1c7ab0ff67 
UVM_INFO ../tb/apb_driver.sv(20) @ 4805: uvm_test_top.env.agent.driver [apb_driver] Driving transaction : addr = 0xe878 | write = 1 | wdata = 0x07bac438bb12c36bb 
UVM_INFO ../tb/apb_monitor.sv(29) @ 4865: uvm_test_top.env.agent.monitor [Monitor] addr : 0xe878 | write : 1 | wdata : 0x7bac438bb12c36bb 
UVM_INFO ../tb/apb_driver.sv(20) @ 4865: uvm_test_top.env.agent.driver [apb_driver] Driving transaction : addr = 0xcff8 | write = 1 | wdata = 0x01a66102247f9cf74 
UVM_INFO ../tb/apb_monitor.sv(29) @ 4925: uvm_test_top.env.agent.monitor [Monitor] addr : 0xcff8 | write : 1 | wdata : 0x1a66102247f9cf74 
UVM_INFO ../tb/apb_driver.sv(20) @ 4925: uvm_test_top.env.agent.driver [apb_driver] Driving transaction : addr = 0xd598 | write = 1 | wdata = 0x0fae2e8d54db73b51 
UVM_INFO ../tb/apb_monitor.sv(29) @ 4985: uvm_test_top.env.agent.monitor [Monitor] addr : 0xd598 | write : 1 | wdata : 0xfae2e8d54db73b51 
UVM_INFO ../tb/apb_driver.sv(20) @ 4985: uvm_test_top.env.agent.driver [apb_driver] Driving transaction : addr = 0x86b8 | write = 1 | wdata = 0x0e7b9556d9f416d16 
UVM_INFO ../tb/apb_monitor.sv(29) @ 5045: uvm_test_top.env.agent.monitor [Monitor] addr : 0x86b8 | write : 1 | wdata : 0xe7b9556d9f416d16 
UVM_INFO ../tb/apb_driver.sv(20) @ 5045: uvm_test_top.env.agent.driver [apb_driver] Driving transaction : addr = 0xb18 | write = 1 | wdata = 0x01e5357ab7f59e97f 
UVM_INFO ../tb/apb_monitor.sv(29) @ 5105: uvm_test_top.env.agent.monitor [Monitor] addr : 0xb18 | write : 1 | wdata : 0x1e5357ab7f59e97f 
UVM_INFO ../tb/apb_driver.sv(20) @ 5105: uvm_test_top.env.agent.driver [apb_driver] Driving transaction : addr = 0xa228 | write = 1 | wdata = 0x0823bb328c3f3ee99 
UVM_INFO ../tb/apb_monitor.sv(29) @ 5165: uvm_test_top.env.agent.monitor [Monitor] addr : 0xa228 | write : 1 | wdata : 0x823bb328c3f3ee99 
UVM_INFO ../tb/apb_driver.sv(20) @ 5165: uvm_test_top.env.agent.driver [apb_driver] Driving transaction : addr = 0xa540 | write = 1 | wdata = 0x0d5ded7fbc93bcb11 
UVM_INFO ../tb/apb_monitor.sv(29) @ 5225: uvm_test_top.env.agent.monitor [Monitor] addr : 0xa540 | write : 1 | wdata : 0xd5ded7fbc93bcb11 
UVM_INFO ../tb/apb_driver.sv(20) @ 5225: uvm_test_top.env.agent.driver [apb_driver] Driving transaction : addr = 0x2e20 | write = 1 | wdata = 0x0c862bb6b80a54e2f 
UVM_INFO ../tb/apb_monitor.sv(29) @ 5285: uvm_test_top.env.agent.monitor [Monitor] addr : 0x2e20 | write : 1 | wdata : 0xc862bb6b80a54e2f 
UVM_INFO ../tb/apb_driver.sv(20) @ 5285: uvm_test_top.env.agent.driver [apb_driver] Driving transaction : addr = 0x9020 | write = 1 | wdata = 0x026e0a877bb2d0a74 
UVM_INFO ../tb/apb_monitor.sv(29) @ 5345: uvm_test_top.env.agent.monitor [Monitor] addr : 0x9020 | write : 1 | wdata : 0x26e0a877bb2d0a74 
UVM_INFO ../tb/apb_driver.sv(20) @ 5345: uvm_test_top.env.agent.driver [apb_driver] Driving transaction : addr = 0x2f10 | write = 1 | wdata = 0x0933b719f49f27eca 
UVM_INFO ../tb/apb_monitor.sv(29) @ 5405: uvm_test_top.env.agent.monitor [Monitor] addr : 0x2f10 | write : 1 | wdata : 0x933b719f49f27eca 
UVM_INFO ../tb/apb_driver.sv(20) @ 5405: uvm_test_top.env.agent.driver [apb_driver] Driving transaction : addr = 0x89a8 | write = 1 | wdata = 0x0561775fccdf2f684 
UVM_INFO ../tb/apb_monitor.sv(29) @ 5465: uvm_test_top.env.agent.monitor [Monitor] addr : 0x89a8 | write : 1 | wdata : 0x561775fccdf2f684 
UVM_INFO ../tb/apb_driver.sv(20) @ 5465: uvm_test_top.env.agent.driver [apb_driver] Driving transaction : addr = 0x4178 | write = 1 | wdata = 0x0975e21a4c53cd7c 
UVM_INFO ../tb/apb_monitor.sv(29) @ 5525: uvm_test_top.env.agent.monitor [Monitor] addr : 0x4178 | write : 1 | wdata : 0x975e21a4c53cd7c 
UVM_INFO ../tb/apb_driver.sv(20) @ 5525: uvm_test_top.env.agent.driver [apb_driver] Driving transaction : addr = 0x12b8 | write = 1 | wdata = 0x0244079bc57240cf1 
UVM_INFO ../tb/apb_monitor.sv(29) @ 5585: uvm_test_top.env.agent.monitor [Monitor] addr : 0x12b8 | write : 1 | wdata : 0x244079bc57240cf1 
UVM_INFO ../tb/apb_driver.sv(20) @ 5585: uvm_test_top.env.agent.driver [apb_driver] Driving transaction : addr = 0x8440 | write = 1 | wdata = 0x06cf4dbd3746c8efe 
UVM_INFO ../tb/apb_monitor.sv(29) @ 5645: uvm_test_top.env.agent.monitor [Monitor] addr : 0x8440 | write : 1 | wdata : 0x6cf4dbd3746c8efe 
UVM_INFO ../tb/apb_driver.sv(20) @ 5645: uvm_test_top.env.agent.driver [apb_driver] Driving transaction : addr = 0x3090 | write = 1 | wdata = 0x041124a826c9e9140 
UVM_INFO ../tb/apb_monitor.sv(29) @ 5705: uvm_test_top.env.agent.monitor [Monitor] addr : 0x3090 | write : 1 | wdata : 0x41124a826c9e9140 
UVM_INFO ../tb/apb_driver.sv(20) @ 5705: uvm_test_top.env.agent.driver [apb_driver] Driving transaction : addr = 0xb370 | write = 1 | wdata = 0x0b3f63812c02353e5 
UVM_INFO ../tb/apb_monitor.sv(29) @ 5765: uvm_test_top.env.agent.monitor [Monitor] addr : 0xb370 | write : 1 | wdata : 0xb3f63812c02353e5 
UVM_INFO ../tb/apb_driver.sv(20) @ 5765: uvm_test_top.env.agent.driver [apb_driver] Driving transaction : addr = 0x7808 | write = 1 | wdata = 0x09f4087c7a0e8871f 
UVM_INFO ../tb/apb_monitor.sv(29) @ 5825: uvm_test_top.env.agent.monitor [Monitor] addr : 0x7808 | write : 1 | wdata : 0x9f4087c7a0e8871f 
UVM_INFO ../tb/apb_driver.sv(20) @ 5825: uvm_test_top.env.agent.driver [apb_driver] Driving transaction : addr = 0xb6f0 | write = 1 | wdata = 0x0a1b409b139e230e0 
UVM_INFO ../tb/apb_monitor.sv(29) @ 5885: uvm_test_top.env.agent.monitor [Monitor] addr : 0xb6f0 | write : 1 | wdata : 0xa1b409b139e230e0 
UVM_INFO ../tb/apb_driver.sv(20) @ 5885: uvm_test_top.env.agent.driver [apb_driver] Driving transaction : addr = 0xeaa8 | write = 1 | wdata = 0x0e03825684958b9d3 
UVM_INFO ../tb/apb_monitor.sv(29) @ 5945: uvm_test_top.env.agent.monitor [Monitor] addr : 0xeaa8 | write : 1 | wdata : 0xe03825684958b9d3 
UVM_INFO ../tb/apb_driver.sv(20) @ 5945: uvm_test_top.env.agent.driver [apb_driver] Driving transaction : addr = 0xd0c0 | write = 1 | wdata = 0x0607b715923adb38f 
UVM_INFO ../tb/apb_monitor.sv(29) @ 6005: uvm_test_top.env.agent.monitor [Monitor] addr : 0xd0c0 | write : 1 | wdata : 0x607b715923adb38f 
UVM_INFO ../tb/apb_base_seq.sv(36) @ 6005: uvm_test_top.env.agent.sequencer@@seq [apb_base_seq] Sequence body finish
UVM_INFO ../tb/apb_test.sv(21) @ 6005: uvm_test_top [apb_random_test] Test run phase: seq done
UVM_INFO /usr/synopsys/vcs-L-2016.06//etc/uvm-1.2/base/uvm_objection.svh(1270) @ 6005: reporter [TEST_DONE] 'run' phase is ready to proceed to the 'extract' phase
UVM_INFO ../tb/apb_coverage.sv(157) @ 6005: uvm_test_top.env.cov [COV_SUMMARY] ------------FUNCTIONAL COVERAGE-----------
UVM_INFO ../tb/apb_coverage.sv(158) @ 6005: uvm_test_top.env.cov [COV_SUMMARY] cg     (transfer coverage)  : 31.67 %
UVM_INFO ../tb/apb_coverage.sv(159) @ 6005: uvm_test_top.env.cov [COV_SUMMARY] cg_b2b (back-to-back)       : 40.00 %
UVM_INFO ../tb/apb_scoreboard.sv(85) @ 6005: uvm_test_top.env.scb [SCB_SUMMARY] ------------SCOREBOARD SUMMARY-----------
UVM_INFO ../tb/apb_scoreboard.sv(86) @ 6005: uvm_test_top.env.scb [SCB_SUMMARY] Total Transfer :100
UVM_INFO ../tb/apb_scoreboard.sv(87) @ 6005: uvm_test_top.env.scb [SCB_SUMMARY] Write/Read :100/0
UVM_INFO ../tb/apb_scoreboard.sv(89) @ 6005: uvm_test_top.env.scb [SCB_SUMMARY] PSLVERR Check pass/fail:100/0
UVM_INFO ../tb/apb_scoreboard.sv(90) @ 6005: uvm_test_top.env.scb [SCB_SUMMARY] Read data Check pass/fail :100/0
UVM_INFO ../tb/apb_scoreboard.sv(91) @ 6005: uvm_test_top.env.scb [SCB_SUMMARY] Unchecked read bytes (never written) :0
UVM_INFO ../tb/apb_base_test.sv(49) @ 6005: uvm_test_top [apb_random_test] ---------------------------------------
UVM_INFO ../tb/apb_base_test.sv(50) @ 6005: uvm_test_top [apb_random_test] ----           TEST PASS           ----
UVM_INFO ../tb/apb_base_test.sv(51) @ 6005: uvm_test_top [apb_random_test] ---------------------------------------
UVM_INFO /usr/synopsys/vcs-L-2016.06//etc/uvm-1.2/base/uvm_report_catcher.svh(705) @ 6005: reporter [UVM/REPORT/CATCHER] 
--- UVM Report catcher Summary ---


Number of demoted UVM_FATAL reports  :    0
Number of demoted UVM_ERROR reports  :    0
Number of demoted UVM_WARNING reports:    0
Number of caught UVM_FATAL reports   :    0
Number of caught UVM_ERROR reports   :    0
Number of caught UVM_WARNING reports :    0

UVM_INFO /usr/synopsys/vcs-L-2016.06//etc/uvm-1.2/base/uvm_report_server.svh(894) @ 6005: reporter [UVM/REPORT/SERVER] 
--- UVM Report Summary ---

** Report counts by severity
UVM_INFO :  231
UVM_WARNING :    0
UVM_ERROR :    0
UVM_FATAL :    0
** Report counts by id
[COV_SUMMARY]     3
[Monitor]   100
[RNTST]     1
[SCB_SUMMARY]     6
[TB_TOP]     1
[TEST_DONE]     1
[TIMOUTSET]     1
[UVM/RELNOTES]     1
[UVM/REPORT/CATCHER]     1
[apb_agent]     1
[apb_base_seq]     2
[apb_driver]   102
[apb_env]     2
[apb_mon]     2
[apb_random_test]     6
[apb_sequencer]     1

$finish called from file "/usr/synopsys/vcs-L-2016.06//etc/uvm-1.2/base/uvm_root.svh", line 527.
$finish at simulation time                 6005

---------------------------------------------------------------------------
VCS Coverage Metrics: during simulation line, cond, tgl was monitored
---------------------------------------------------------------------------

 Coverage status: End of All Coverages ...

           V C S   S i m u l a t i o n   R e p o r t 
Time: 6005
CPU Time:      0.550 seconds;       Data structure size:   0.4Mb
Sun Oct  4 21:11:31 2026
