
Note-[RT_BS] Larger stack needed
  Note: Bumping stack limit from 8192 to 8250 Kbytes.

Chronologic VCS simulator copyright 1991-2016
Contains Synopsys proprietary information.
Compiler version L-2016.06_Full64; Runtime version L-2016.06_Full64;  Oct  4 21:11 2026
UVM_INFO /usr/synopsys/vcs-L-2016.06//etc/uvm-1.2/base/uvm_root.svh(402) @ 0: reporter [UVM/RELNOTES] 
----------------------------------------------------------------
UVM-1.2.Synopsys
(C) 2007-2014 Mentor Graphics Corporation
(C) 2007-2014 Cadence Design Systems, Inc.
(C) 2006-2014 Synopsys, Inc.
(C) 2011-2013 Cypress Semiconductor Corp.
(C) 2013-2014 NVIDIA Corporation
----------------------------------------------------------------

  ***********       IMPORTANT RELEASE NOTES         ************

  You are using a version of the UVM library that has been compiled
  with `UVM_NO_DEPRECATED undefined.
  See http://www.eda.org/svdb/view.php?id=3313 for more details.

  You are using a version of the UVM library that has been compiled
  with `UVM_OBJECT_DO_NOT_NEED_CONSTRUCTOR undefined.
  See http://www.eda.org/svdb/view.php?id=3770 for more details.

      (Specify +UVM_NO_RELNOTES to turn off this notice)


 VCS Coverage Metrics Release L-2016.06_Full64 Copyright (c) 1991-2016 by Synopsys Inc.
UVM_INFO ../tb/apb_top.sv(44) @ 0: reporter [TB_TOP] Starting UVM Test ...
UVM_INFO @ 0: reporter [RNTST] Running test apb_err_test...
VCD+ Writer L-2016.06_Full64 Copyright (c) 1991-2016 by Synopsys Inc.
UVM_INFO @ 0: reporter [TIMOUTSET] '+UVM_TIMEOUT=9200000' provided on the command line is being applied.
UVM_INFO ../tb/apb_test.sv(58) @ 0: uvm_test_top [apb_err_test] Test build phase
UVM_INFO ../tb/apb_env.sv(13) @ 0: uvm_test_top.env [apb_env] Env build phase

Note-[FCICIO] Instance coverage is ON
/mnt/mydata/APB_UVM/sim/../tb/apb_coverage.sv, 28
apb_pkg, "apb_pkg::apb_coverage::cg"
  Instance coverage is set (option.per_instance = 1) for covergroup 
  'apb_pkg::apb_coverage::cg'
  
  Covergroup Instance: tb_top.me.obj.cg 
  Design hierarchy: apb_pkg


Note-[FCICIO] Instance coverage is ON
/mnt/mydata/APB_UVM/sim/../tb/apb_coverage.sv, 86
apb_pkg, "apb_pkg::apb_coverage::cg_b2b"
  Instance coverage is set (option.per_instance = 1) for covergroup 
  'apb_pkg::apb_coverage::cg_b2b'
  
  Covergroup Instance: tb_top.me.obj.cg_b2b 
  Design hierarchy: apb_pkg

UVM_INFO ../tb/apb_agent.sv(13) @ 0: uvm_test_top.env.agent [apb_agent] Agent build phase
UVM_INFO ../tb/apb_sequencer.sv(6) @ 0: uvm_test_top.env.agent.sequencer [apb_sequencer] sequence build phase
UVM_INFO ../tb/apb_driver.sv(11) @ 0: uvm_test_top.env.agent.driver [apb_driver] Driver build phase
UVM_INFO ../tb/apb_monitor.sv(12) @ 0: uvm_test_top.env.agent.monitor [apb_mon] apb_mon build phase
UVM_INFO ../tb/apb_env.sv(21) @ 0: uvm_test_top.env [apb_env] Env connect phase
--------------------------------------------------------------
Name                       Type                    Size  Value
--------------------------------------------------------------
uvm_test_top               apb_err_test            -     @343 
  env                      apb_env                 -     @358 
    agent                  apb_agent               -     @377 
      driver               apb_driver              -     @417 
        rsp_port           uvm_analysis_port       -     @436 
        seq_item_port      uvm_seq_item_pull_port  -     @426 
      monitor              apb_mon                 -     @585 
        ap                 uvm_analysis_port       -     @597 
      sequencer            apb_sequencer           -     @446 
        rsp_export         uvm_analysis_export     -     @455 
        seq_item_export    uvm_seq_item_pull_imp   -     @573 
        arbitration_queue  array                   0     -    
        lock_queue         array                   0     -    
        num_last_reqs      integral                32    'd1  
        num_last_rsps      integral                32    'd1  
    cov                    apb_coverage            -     @395 
      analysis_imp         uvm_analysis_imp        -     @404 
    scb                    apb_scoreboard          -     @386 
      item_export          uvm_analysis_imp        -     @616 
--------------------------------------------------------------
UVM_INFO ../tb/apb_driver.sv(17) @ 0: uvm_test_top.env.agent.driver [apb_driver] Driver run phase started 
UVM_INFO ../tb/apb_monitor.sv(18) @ 0: uvm_test_top.env.agent.monitor [apb_mon] apb_mon run phase started 
UVM_INFO ../tb/apb_test.sv(64) @ 0: uvm_test_top [apb_err_test] Test run phase
UVM_INFO ../tb/apb_err_seq.sv(17) @ 0: uvm_test_top.env.agent.sequencer@@seq [apb_err_seq] Error Injection Sequence Started :
UVM_INFO ../tb/apb_driver.sv(20) @ 0: uvm_test_top.env.agent.driver [apb_driver] Driving transaction : addr = 0x0 | write = 1 | wdata = 0x0315b2319565249b2 
UVM_INFO ../tb/apb_monitor.sv(29) @ 65: uvm_test_top.env.agent.monitor [Monitor] addr : 0x0 | write : 1 | wdata : 0x315b2319565249b2 
UVM_INFO ../tb/apb_driver.sv(20) @ 65: uvm_test_top.env.agent.driver [apb_driver] Driving transaction : addr = 0x0 | write = 0 | wdata = 0x0c769898e8a5ef3f0 
UVM_INFO ../tb/apb_monitor.sv(29) @ 125: uvm_test_top.env.agent.monitor [Monitor] addr : 0x0 | write : 0 | wdata : 0x0 
UVM_INFO ../tb/apb_driver.sv(20) @ 125: uvm_test_top.env.agent.driver [apb_driver] Driving transaction : addr = 0xfff8 | write = 1 | wdata = 0x076a536dc8cfec5c2 
UVM_INFO ../tb/apb_monitor.sv(29) @ 185: uvm_test_top.env.agent.monitor [Monitor] addr : 0xfff8 | write : 1 | wdata : 0x76a536dc8cfec5c2 
UVM_INFO ../tb/apb_driver.sv(20) @ 185: uvm_test_top.env.agent.driver [apb_driver] Driving transaction : addr = 0xfff8 | write = 0 | wdata = 0x0a90ae6884c08b960 
UVM_INFO ../tb/apb_monitor.sv(29) @ 245: uvm_test_top.env.agent.monitor [Monitor] addr : 0xfff8 | write : 0 | wdata : 0x0 
UVM_INFO ../tb/apb_driver.sv(20) @ 245: uvm_test_top.env.agent.driver [apb_driver] Driving transaction : addr = 0xfffc | write = 1 | wdata = 0x0e48c4e631f6e1747 
UVM_INFO ../tb/apb_monitor.sv(29) @ 305: uvm_test_top.env.agent.monitor [Monitor] addr : 0xfffc | write : 1 | wdata : 0xe48c4e631f6e1747 
UVM_INFO ../tb/apb_driver.sv(20) @ 305: uvm_test_top.env.agent.driver [apb_driver] Driving transaction : addr = 0xfffc | write = 0 | wdata = 0x02e4dec9e78be5622 
UVM_INFO ../tb/apb_monitor.sv(29) @ 365: uvm_test_top.env.agent.monitor [Monitor] addr : 0xfffc | write : 0 | wdata : 0x0 
UVM_INFO ../tb/apb_driver.sv(20) @ 365: uvm_test_top.env.agent.driver [apb_driver] Driving transaction : addr = 0xffff | write = 1 | wdata = 0x078ef284e1beb8473 
UVM_INFO ../tb/apb_monitor.sv(29) @ 425: uvm_test_top.env.agent.monitor [Monitor] addr : 0xffff | write : 1 | wdata : 0x78ef284e1beb8473 
UVM_INFO ../tb/apb_driver.sv(20) @ 425: uvm_test_top.env.agent.driver [apb_driver] Driving transaction : addr = 0xffff | write = 0 | wdata = 0x0bc372bc0d5d40819 
UVM_INFO ../tb/apb_monitor.sv(29) @ 485: uvm_test_top.env.agent.monitor [Monitor] addr : 0xffff | write : 0 | wdata : 0x0 
UVM_INFO ../tb/apb_driver.sv(20) @ 485: uvm_test_top.env.agent.driver [apb_driver] Driving transaction : addr = 0x10000 | write = 1 | wdata = 0x0322dd26b8bd342da 
UVM_INFO ../tb/apb_monitor.sv(29) @ 545: uvm_test_top.env.agent.monitor [Monitor] addr : 0x10000 | write : 1 | wdata : 0x322dd26b8bd342da 
UVM_INFO ../tb/apb_driver.sv(20) @ 545: uvm_test_top.env.agent.driver [apb_driver] Driving transaction : addr = 0x10000 | write = 0 | wdata = 0x0c81e8014c21d4959 
UVM_INFO ../tb/apb_monitor.sv(29) @ 605: uvm_test_top.env.agent.monitor [Monitor] addr : 0x10000 | write : 0 | wdata : 0x0 
UVM_INFO ../tb/apb_driver.sv(20) @ 605: uvm_test_top.env.agent.driver [apb_driver] Driving transaction : addr = 0x10008 | write = 1 | wdata = 0x028aad22626695807 
UVM_INFO ../tb/apb_monitor.sv(29) @ 665: uvm_test_top.env.agent.monitor [Monitor] addr : 0x10008 | write : 1 | wdata : 0x28aad22626695807 
UVM_INFO ../tb/apb_driver.sv(20) @ 665: uvm_test_top.env.agent.driver [apb_driver] Driving transaction : addr = 0x10008 | write = 0 | wdata = 0x0ebc43fc52180915f 
UVM_INFO ../tb/apb_monitor.sv(29) @ 725: uvm_test_top.env.agent.monitor [Monitor] addr : 0x10008 | write : 0 | wdata : 0x0 
UVM_INFO ../tb/apb_driver.sv(20) @ 725: uvm_test_top.env.agent.driver [apb_driver] Driving transaction : addr = 0x10001 | write = 1 | wdata = 0x0d4623d26f43316ab 
UVM_INFO ../tb/apb_monitor.sv(29) @ 785: uvm_test_top.env.agent.monitor [Monitor] addr : 0x10001 | write : 1 | wdata : 0xd4623d26f43316ab 
UVM_INFO ../tb/apb_driver.sv(20) @ 785: uvm_test_top.env.agent.driver [apb_driver] Driving transaction : addr = 0x10001 | write = 0 | wdata = 0x03d45a9d2a347626d 
UVM_INFO ../tb/apb_monitor.sv(29) @ 845: uvm_test_top.env.agent.monitor [Monitor] addr : 0x10001 | write : 0 | wdata : 0x0 
UVM_INFO ../tb/apb_driver.sv(20) @ 845: uvm_test_top.env.agent.driver [apb_driver] Driving transaction : addr = 0x1ffff | write = 1 | wdata = 0x0ca7d560eaf318ed6 
UVM_INFO ../tb/apb_monitor.sv(29) @ 905: uvm_test_top.env.agent.monitor [Monitor] addr : 0x1ffff | write : 1 | wdata : 0xca7d560eaf318ed6 
UVM_INFO ../tb/apb_driver.sv(20) @ 905: uvm_test_top.env.agent.driver [apb_driver] Driving transaction : addr = 0x1ffff | write = 0 | wdata = 0x0b608c5bc1de81b81 
UVM_INFO ../tb/apb_monitor.sv(29) @ 965: uvm_test_top.env.agent.monitor [Monitor] addr : 0x1ffff | write : 0 | wdata : 0x0 
UVM_INFO ../tb/apb_driver.sv(20) @ 965: uvm_test_top.env.agent.driver [apb_driver] Driving transaction : addr = 0x20000 | write = 1 | wdata = 0x03665972f5ee776b9 
UVM_INFO ../tb/apb_monitor.sv(29) @ 1025: uvm_test_top.env.agent.monitor [Monitor] addr : 0x20000 | write : 1 | wdata : 0x3665972f5ee776b9 
UVM_INFO ../tb/apb_driver.sv(20) @ 1025: uvm_test_top.env.agent.driver [apb_driver] Driving transaction : addr = 0x20000 | write = 0 | wdata = 0x0ec77d39cd0b347cb 
UVM_INFO ../tb/apb_monitor.sv(29) @ 1085: uvm_test_top.env.agent.monitor [Monitor] addr : 0x20000 | write : 0 | wdata : 0x0 
UVM_INFO ../tb/apb_driver.sv(20) @ 1085: uvm_test_top.env.agent.driver [apb_driver] Driving transaction : addr = 0x80000000 | write = 1 | wdata = 0x0dd3af6c162e36503 
UVM_INFO ../tb/apb_monitor.sv(29) @ 1145: uvm_test_top.env.agent.monitor [Monitor] addr : 0x80000000 | write : 1 | wdata : 0xdd3af6c162e36503 
UVM_INFO ../tb/apb_driver.sv(20) @ 1145: uvm_test_top.env.agent.driver [apb_driver] Driving transaction : addr = 0x80000000 | write = 0 | wdata = 0x0cab2d1ef77e4e24d 
UVM_INFO ../tb/apb_monitor.sv(29) @ 1205: uvm_test_top.env.agent.monitor [Monitor] addr : 0x80000000 | write : 0 | wdata : 0x0 
UVM_INFO ../tb/apb_driver.sv(20) @ 1205: uvm_test_top.env.agent.driver [apb_driver] Driving transaction : addr = 0xfffffff8 | write = 1 | wdata = 0x099568b6c42d4c5d6 
UVM_INFO ../tb/apb_monitor.sv(29) @ 1265: uvm_test_top.env.agent.monitor [Monitor] addr : 0xfffffff8 | write : 1 | wdata : 0x99568b6c42d4c5d6 
UVM_INFO ../tb/apb_driver.sv(20) @ 1265: uvm_test_top.env.agent.driver [apb_driver] Driving transaction : addr = 0xfffffff8 | write = 0 | wdata = 0x0c94e3db740a84b91 
UVM_INFO ../tb/apb_monitor.sv(29) @ 1325: uvm_test_top.env.agent.monitor [Monitor] addr : 0xfffffff8 | write : 0 | wdata : 0x0 
UVM_INFO ../tb/apb_driver.sv(20) @ 1325: uvm_test_top.env.agent.driver [apb_driver] Driving transaction : addr = 0xffffffff | write = 1 | wdata = 0x0c551dc00672a4c05 
UVM_INFO ../tb/apb_monitor.sv(29) @ 1385: uvm_test_top.env.agent.monitor [Monitor] addr : 0xffffffff | write : 1 | wdata : 0xc551dc00672a4c05 
UVM_INFO ../tb/apb_driver.sv(20) @ 1385: uvm_test_top.env.agent.driver [apb_driver] Driving transaction : addr = 0xffffffff | write = 0 | wdata = 0x01f23680158259bcc 
UVM_INFO ../tb/apb_monitor.sv(29) @ 1445: uvm_test_top.env.agent.monitor [Monitor] addr : 0xffffffff | write : 0 | wdata : 0x0 
UVM_INFO ../tb/apb_driver.sv(20) @ 1445: uvm_test_top.env.agent.driver [apb_driver] Driving transaction : addr = 0x1 | write = 1 | wdata = 0x0f12cbddd44154932 
UVM_INFO ../tb/apb_monitor.sv(29) @ 1505: uvm_test_top.env.agent.monitor [Monitor] addr : 0x1 | write : 1 | wdata : 0xf12cbddd44154932 
UVM_INFO ../tb/apb_driver.sv(20) @ 1505: uvm_test_top.env.agent.driver [apb_driver] Driving transaction : addr = 0x1 | write = 0 | wdata = 0x04d4b31c84986f236 
UVM_INFO ../tb/apb_monitor.sv(29) @ 1565: uvm_test_top.env.agent.monitor [Monitor] addr : 0x1 | write : 0 | wdata : 0x0 
UVM_INFO ../tb/apb_driver.sv(20) @ 1565: uvm_test_top.env.agent.driver [apb_driver] Driving transaction : addr = 0x4 | write = 1 | wdata = 0x0b0963ae9a2ceac73 
UVM_INFO ../tb/apb_monitor.sv(29) @ 1625: uvm_test_top.env.agent.monitor [Monitor] addr : 0x4 | write : 1 | wdata : 0xb0963ae9a2ceac73 
UVM_INFO ../tb/apb_driver.sv(20) @ 1625: uvm_test_top.env.agent.driver [apb_driver] Driving transaction : addr = 0x4 | write = 0 | wdata = 0x0591200af5d425a6 
UVM_INFO ../tb/apb_monitor.sv(29) @ 1685: uvm_test_top.env.agent.monitor [Monitor] addr : 0x4 | write : 0 | wdata : 0x0 
UVM_INFO ../tb/apb_driver.sv(20) @ 1685: uvm_test_top.env.agent.driver [apb_driver] Driving transaction : addr = 0x7 | write = 1 | wdata = 0x0a001ec9df0ab979c 
UVM_INFO ../tb/apb_monitor.sv(29) @ 1745: uvm_test_top.env.agent.monitor [Monitor] addr : 0x7 | write : 1 | wdata : 0xa001ec9df0ab979c 
UVM_INFO ../tb/apb_driver.sv(20) @ 1745: uvm_test_top.env.agent.driver [apb_driver] Driving transaction : addr = 0x7 | write = 0 | wdata = 0x05d619b82929c082f 
UVM_INFO ../tb/apb_monitor.sv(29) @ 1805: uvm_test_top.env.agent.monitor [Monitor] addr : 0x7 | write : 0 | wdata : 0x0 
UVM_INFO ../tb/apb_driver.sv(20) @ 1805: uvm_test_top.env.agent.driver [apb_driver] Driving transaction : addr = 0x26da8748 | write = 1 | wdata = 0x0f0a29d7a322a6602 
UVM_INFO ../tb/apb_monitor.sv(29) @ 1865: uvm_test_top.env.agent.monitor [Monitor] addr : 0x26da8748 | write : 1 | wdata : 0xf0a29d7a322a6602 
UVM_INFO ../tb/apb_driver.sv(20) @ 1865: uvm_test_top.env.agent.driver [apb_driver] Driving transaction : addr = 0xe1550a48 | write = 0 | wdata = 0x02bbea409f45d439d 
UVM_INFO ../tb/apb_monitor.sv(29) @ 1925: uvm_test_top.env.agent.monitor [Monitor] addr : 0xe1550a48 | write : 0 | wdata : 0x0 
UVM_INFO ../tb/apb_driver.sv(20) @ 1925: uvm_test_top.env.agent.driver [apb_driver] Driving transaction : addr = 0xa497a1f0 | write = 1 | wdata = 0x0ef05ff9b2a73f0b2 
UVM_INFO ../tb/apb_monitor.sv(29) @ 1985: uvm_test_top.env.agent.monitor [Monitor] addr : 0xa497a1f0 | write : 1 | wdata : 0xef05ff9b2a73f0b2 
UVM_INFO ../tb/apb_driver.sv(20) @ 1985: uvm_test_top.env.agent.driver [apb_driver] Driving transaction : addr = 0x893ea720 | write = 0 | wdata = 0x0ebcf237a1cbbdc9a 
UVM_INFO ../tb/apb_monitor.sv(29) @ 2045: uvm_test_top.env.agent.monitor [Monitor] addr : 0x893ea720 | write : 0 | wdata : 0x0 
UVM_INFO ../tb/apb_driver.sv(20) @ 2045: uvm_test_top.env.agent.driver [apb_driver] Driving transaction : addr = 0xd7a8ca60 | write = 1 | wdata = 0x0542eae2f8c980593 
UVM_INFO ../tb/apb_monitor.sv(29) @ 2105: uvm_test_top.env.agent.monitor [Monitor] addr : 0xd7a8ca60 | write : 1 | wdata : 0x542eae2f8c980593 
UVM_INFO ../tb/apb_driver.sv(20) @ 2105: uvm_test_top.env.agent.driver [apb_driver] Driving transaction : addr = 0x5099aec0 | write = 1 | wdata = 0x03d8d15bfcab44c94 
UVM_INFO ../tb/apb_monitor.sv(29) @ 2165: uvm_test_top.env.agent.monitor [Monitor] addr : 0x5099aec0 | write : 1 | wdata : 0x3d8d15bfcab44c94 
UVM_INFO ../tb/apb_driver.sv(20) @ 2165: uvm_test_top.env.agent.driver [apb_driver] Driving transaction : addr = 0x1c30a0f8 | write = 0 | wdata = 0x0b5e449e29e86869c 
UVM_INFO ../tb/apb_monitor.sv(29) @ 2225: uvm_test_top.env.agent.monitor [Monitor] addr : 0x1c30a0f8 | write : 0 | wdata : 0x0 
UVM_INFO ../tb/apb_driver.sv(20) @ 2225: uvm_test_top.env.agent.driver [apb_driver] Driving transaction : addr = 0x95f80570 | write = 1 | wdata = 0x0210147804218bf0 
UVM_INFO ../tb/apb_monitor.sv(29) @ 2285: uvm_test_top.env.agent.monitor [Monitor] addr : 0x95f80570 | write : 1 | wdata : 0x210147804218bf0 
UVM_INFO ../tb/apb_driver.sv(20) @ 2285: uvm_test_top.env.agent.driver [apb_driver] Driving transaction : addr = 0xff35070 | write = 0 | wdata = 0x07b6f44c21e2c1fb6 
UVM_INFO ../tb/apb_monitor.sv(29) @ 2345: uvm_test_top.env.agent.monitor [Monitor] addr : 0xff35070 | write : 0 | wdata : 0x0 
UVM_INFO ../tb/apb_driver.sv(20) @ 2345: uvm_test_top.env.agent.driver [apb_driver] Driving transaction : addr = 0x1dfb1608 | write = 1 | wdata = 0x0d10d19eb19e8aeee 
UVM_INFO ../tb/apb_monitor.sv(29) @ 2405: uvm_test_top.env.agent.monitor [Monitor] addr : 0x1dfb1608 | write : 1 | wdata : 0xd10d19eb19e8aeee 
UVM_INFO ../tb/apb_driver.sv(20) @ 2405: uvm_test_top.env.agent.driver [apb_driver] Driving transaction : addr = 0xb1baf3f0 | write = 1 | wdata = 0x080a48877fe1f5890 
UVM_INFO ../tb/apb_monitor.sv(29) @ 2465: uvm_test_top.env.agent.monitor [Monitor] addr : 0xb1baf3f0 | write : 1 | wdata : 0x80a48877fe1f5890 
UVM_INFO ../tb/apb_driver.sv(20) @ 2465: uvm_test_top.env.agent.driver [apb_driver] Driving transaction : addr = 0x5472ef38 | write = 1 | wdata = 0x0d9fef50d09c700d6 
UVM_INFO ../tb/apb_monitor.sv(29) @ 2525: uvm_test_top.env.agent.monitor [Monitor] addr : 0x5472ef38 | write : 1 | wdata : 0xd9fef50d09c700d6 
UVM_INFO ../tb/apb_driver.sv(20) @ 2525: uvm_test_top.env.agent.driver [apb_driver] Driving transaction : addr = 0x6b3effd8 | write = 0 | wdata = 0x02ab0113801cabbc3 
UVM_INFO ../tb/apb_monitor.sv(29) @ 2585: uvm_test_top.env.agent.monitor [Monitor] addr : 0x6b3effd8 | write : 0 | wdata : 0x0 
UVM_INFO ../tb/apb_driver.sv(20) @ 2585: uvm_test_top.env.agent.driver [apb_driver] Driving transaction : addr = 0xa198f0 | write = 1 | wdata = 0x023ca1a393ab838e9 
UVM_INFO ../tb/apb_monitor.sv(29) @ 2645: uvm_test_top.env.agent.monitor [Monitor] addr : 0xa198f0 | write : 1 | wdata : 0x23ca1a393ab838e9 
UVM_INFO ../tb/apb_driver.sv(20) @ 2645: uvm_test_top.env.agent.driver [apb_driver] Driving transaction : addr = 0x49b66c18 | write = 0 | wdata = 0x0e6665dc009988902 
UVM_INFO ../tb/apb_monitor.sv(29) @ 2705: uvm_test_top.env.agent.monitor [Monitor] addr : 0x49b66c18 | write : 0 | wdata : 0x0 
UVM_INFO ../tb/apb_driver.sv(20) @ 2705: uvm_test_top.env.agent.driver [apb_driver] Driving transaction : addr = 0x68e60060 | write = 0 | wdata = 0x0c8fd2065df52758b 
UVM_INFO ../tb/apb_monitor.sv(29) @ 2765: uvm_test_top.env.agent.monitor [Monitor] addr : 0x68e60060 | write : 0 | wdata : 0x0 
UVM_INFO ../tb/apb_driver.sv(20) @ 2765: uvm_test_top.env.agent.driver [apb_driver] Driving transaction : addr = 0xe700eab8 | write = 0 | wdata = 0x0438b9d1e93edcbdb 
UVM_INFO ../tb/apb_monitor.sv(29) @ 2825: uvm_test_top.env.agent.monitor [Monitor] addr : 0xe700eab8 | write : 0 | wdata : 0x0 
UVM_INFO ../tb/apb_driver.sv(20) @ 2825: uvm_test_top.env.agent.driver [apb_driver] Driving transaction : addr = 0x205de670 | write = 1 | wdata = 0x06ea87a56ee51028f 
UVM_INFO ../tb/apb_monitor.sv(29) @ 2885: uvm_test_top.env.agent.monitor [Monitor] addr : 0x205de670 | write : 1 | wdata : 0x6ea87a56ee51028f 
UVM_INFO ../tb/apb_driver.sv(20) @ 2885: uvm_test_top.env.agent.driver [apb_driver] Driving transaction : addr = 0x740bed58 | write = 1 | wdata = 0x07e91c3b71f075506 
UVM_INFO ../tb/apb_monitor.sv(29) @ 2945: uvm_test_top.env.agent.monitor [Monitor] addr : 0x740bed58 | write : 1 | wdata : 0x7e91c3b71f075506 
UVM_INFO ../tb/apb_driver.sv(20) @ 2945: uvm_test_top.env.agent.driver [apb_driver] Driving transaction : addr = 0xd9d9c138 | write = 1 | wdata = 0x037294ed8f239380 
UVM_INFO ../tb/apb_monitor.sv(29) @ 3005: uvm_test_top.env.agent.monitor [Monitor] addr : 0xd9d9c138 | write : 1 | wdata : 0x37294ed8f239380 
UVM_INFO ../tb/apb_driver.sv(20) @ 3005: uvm_test_top.env.agent.driver [apb_driver] Driving transaction : addr = 0x6caf1f70 | write = 1 | wdata = 0x0f843b7f7f4e933e1 
UVM_INFO ../tb/apb_monitor.sv(29) @ 3065: uvm_test_top.env.agent.monitor [Monitor] addr : 0x6caf1f70 | write : 1 | wdata : 0xf843b7f7f4e933e1 
UVM_INFO ../tb/apb_driver.sv(20) @ 3065: uvm_test_top.env.agent.driver [apb_driver] Driving transaction : addr = 0xc1d14ff8 | write = 1 | wdata = 0x040054ee4b819761e 
UVM_INFO ../tb/apb_monitor.sv(29) @ 3125: uvm_test_top.env.agent.monitor [Monitor] addr : 0xc1d14ff8 | write : 1 | wdata : 0x40054ee4b819761e 
UVM_INFO ../tb/apb_driver.sv(20) @ 3125: uvm_test_top.env.agent.driver [apb_driver] Driving transaction : addr = 0x9889bed0 | write = 0 | wdata = 0x014dbacc01e6262a4 
UVM_INFO ../tb/apb_monitor.sv(29) @ 3185: uvm_test_top.env.agent.monitor [Monitor] addr : 0x9889bed0 | write : 0 | wdata : 0x0 
UVM_INFO ../tb/apb_driver.sv(20) @ 3185: uvm_test_top.env.agent.driver [apb_driver] Driving transaction : addr = 0x52a2f4a8 | write = 1 | wdata = 0x0bef48678bfd26e10 
UVM_INFO ../tb/apb_monitor.sv(29) @ 3245: uvm_test_top.env.agent.monitor [Monitor] addr : 0x52a2f4a8 | write : 1 | wdata : 0xbef48678bfd26e10 
UVM_INFO ../tb/apb_driver.sv(20) @ 3245: uvm_test_top.env.agent.driver [apb_driver] Driving transaction : addr = 0x9e0dfb48 | write = 1 | wdata = 0x06a30aa0ed44408bd 
UVM_INFO ../tb/apb_monitor.sv(29) @ 3305: uvm_test_top.env.agent.monitor [Monitor] addr : 0x9e0dfb48 | write : 1 | wdata : 0x6a30aa0ed44408bd 
UVM_INFO ../tb/apb_driver.sv(20) @ 3305: uvm_test_top.env.agent.driver [apb_driver] Driving transaction : addr = 0x115ed20 | write = 0 | wdata = 0x083402aaf7085529f 
UVM_INFO ../tb/apb_monitor.sv(29) @ 3365: uvm_test_top.env.agent.monitor [Monitor] addr : 0x115ed20 | write : 0 | wdata : 0x0 
UVM_INFO ../tb/apb_driver.sv(20) @ 3365: uvm_test_top.env.agent.driver [apb_driver] Driving transaction : addr = 0x869ec028 | write = 1 | wdata = 0x0fd36615fbdadd2d2 
UVM_INFO ../tb/apb_monitor.sv(29) @ 3425: uvm_test_top.env.agent.monitor [Monitor] addr : 0x869ec028 | write : 1 | wdata : 0xfd36615fbdadd2d2 
UVM_INFO ../tb/apb_driver.sv(20) @ 3425: uvm_test_top.env.agent.driver [apb_driver] Driving transaction : addr = 0x1b274450 | write = 0 | wdata = 0x03bb7df0330f1fdba 
UVM_INFO ../tb/apb_monitor.sv(29) @ 3485: uvm_test_top.env.agent.monitor [Monitor] addr : 0x1b274450 | write : 0 | wdata : 0x0 
UVM_INFO ../tb/apb_driver.sv(20) @ 3485: uvm_test_top.env.agent.driver [apb_driver] Driving transaction : addr = 0xd6ce74d8 | write = 0 | wdata = 0x0142a2d8d36178215 
UVM_INFO ../tb/apb_monitor.sv(29) @ 3545: uvm_test_top.env.agent.monitor [Monitor] addr : 0xd6ce74d8 | write : 0 | wdata : 0x0 
UVM_INFO ../tb/apb_driver.sv(20) @ 3545: uvm_test_top.env.agent.driver [apb_driver] Driving transaction : addr = 0x9d04ef78 | write = 1 | wdata = 0x0f6e526c170c04617 
UVM_INFO ../tb/apb_monitor.sv(29) @ 3605: uvm_test_top.env.agent.monitor [Monitor] addr : 0x9d04ef78 | write : 1 | wdata : 0xf6e526c170c04617 
UVM_INFO ../tb/apb_driver.sv(20) @ 3605: uvm_test_top.env.agent.driver [apb_driver] Driving transaction : addr = 0xf316 | write = 0 | wdata = 0x036cca2e74363ac9 
UVM_INFO ../tb/apb_monitor.sv(29) @ 3665: uvm_test_top.env.agent.monitor [Monitor] addr : 0xf316 | write : 0 | wdata : 0x0 
UVM_INFO ../tb/apb_driver.sv(20) @ 3665: uvm_test_top.env.agent.driver [apb_driver] Driving transaction : addr = 0x3c6c | write = 1 | wdata = 0x06c41ec3322bef85e 
UVM_INFO ../tb/apb_monitor.sv(29) @ 3725: uvm_test_top.env.agent.monitor [Monitor] addr : 0x3c6c | write : 1 | wdata : 0x6c41ec3322bef85e 
UVM_INFO ../tb/apb_driver.sv(20) @ 3725: uvm_test_top.env.agent.driver [apb_driver] Driving transaction : addr = 0xc6e5 | write = 0 | wdata = 0x0418008f160aee633 
UVM_INFO ../tb/apb_monitor.sv(29) @ 3785: uvm_test_top.env.agent.monitor [Monitor] addr : 0xc6e5 | write : 0 | wdata : 0x0 
UVM_INFO ../tb/apb_driver.sv(20) @ 3785: uvm_test_top.env.agent.driver [apb_driver] Driving transaction : addr = 0x7266 | write = 1 | wdata = 0x04d2ec7efbbb5ffae 
UVM_INFO ../tb/apb_monitor.sv(29) @ 3845: uvm_test_top.env.agent.monitor [Monitor] addr : 0x7266 | write : 1 | wdata : 0x4d2ec7efbbb5ffae 
UVM_INFO ../tb/apb_driver.sv(20) @ 3845: uvm_test_top.env.agent.driver [apb_driver] Driving transaction : addr = 0x2f94 | write = 1 | wdata = 0x0c42ac1e5dc7b941b 
UVM_INFO ../tb/apb_monitor.sv(29) @ 3905: uvm_test_top.env.agent.monitor [Monitor] addr : 0x2f94 | write : 1 | wdata : 0xc42ac1e5dc7b941b 
UVM_INFO ../tb/apb_driver.sv(20) @ 3905: uvm_test_top.env.agent.driver [apb_driver] Driving transaction : addr = 0x7d1e | write = 0 | wdata = 0x06e487a3aed62c94 
UVM_INFO ../tb/apb_monitor.sv(29) @ 3965: uvm_test_top.env.agent.monitor [Monitor] addr : 0x7d1e | write : 0 | wdata : 0x0 
UVM_INFO ../tb/apb_driver.sv(20) @ 3965: uvm_test_top.env.agent.driver [apb_driver] Driving transaction : addr = 0x3a06 | write = 1 | wdata = 0x0d0b75d682f4a7c23 
UVM_INFO ../tb/apb_monitor.sv(29) @ 4025: uvm_test_top.env.agent.monitor [Monitor] addr : 0x3a06 | write : 1 | wdata : 0xd0b75d682f4a7c23 
UVM_INFO ../tb/apb_driver.sv(20) @ 4025: uvm_test_top.env.agent.driver [apb_driver] Driving transaction : addr = 0xefa4 | write = 0 | wdata = 0x0c681f275814194f4 
UVM_INFO ../tb/apb_monitor.sv(29) @ 4085: uvm_test_top.env.agent.monitor [Monitor] addr : 0xefa4 | write : 0 | wdata : 0x0 
UVM_INFO ../tb/apb_driver.sv(20) @ 4085: uvm_test_top.env.agent.driver [apb_driver] Driving transaction : addr = 0xb995 | write = 0 | wdata = 0x0eeed97429e8ed71b 
UVM_INFO ../tb/apb_monitor.sv(29) @ 4145: uvm_test_top.env.agent.monitor [Monitor] addr : 0xb995 | write : 0 | wdata : 0x0 
UVM_INFO ../tb/apb_driver.sv(20) @ 4145: uvm_test_top.env.agent.driver [apb_driver] Driving transaction : addr = 0x8df2 | write = 1 | wdata = 0x0b243646003399a57 
UVM_INFO ../tb/apb_monitor.sv(29) @ 4205: uvm_test_top.env.agent.monitor [Monitor] addr : 0x8df2 | write : 1 | wdata : 0xb243646003399a57 
UVM_INFO ../tb/apb_driver.sv(20) @ 4205: uvm_test_top.env.agent.driver [apb_driver] Driving transaction : addr = 0x563d | write = 0 | wdata = 0x0b136c9b91b277f9a 
UVM_INFO ../tb/apb_monitor.sv(29) @ 4265: uvm_test_top.env.agent.monitor [Monitor] addr : 0x563d | write : 0 | wdata : 0x0 
UVM_INFO ../tb/apb_driver.sv(20) @ 4265: uvm_test_top.env.agent.driver [apb_driver] Driving transaction : addr = 0x3e05 | write = 1 | wdata = 0x0f9feac99f1d9cae0 
UVM_INFO ../tb/apb_monitor.sv(29) @ 4325: uvm_test_top.env.agent.monitor [Monitor] addr : 0x3e05 | write : 1 | wdata : 0xf9feac99f1d9cae0 
UVM_INFO ../tb/apb_driver.sv(20) @ 4325: uvm_test_top.env.agent.driver [apb_driver] Driving transaction : addr = 0x41a2 | write = 1 | wdata = 0x0e2c8858e3fbccdce 
UVM_INFO ../tb/apb_monitor.sv(29) @ 4385: uvm_test_top.env.agent.monitor [Monitor] addr : 0x41a2 | write : 1 | wdata : 0xe2c8858e3fbccdce 
UVM_INFO ../tb/apb_driver.sv(20) @ 4385: uvm_test_top.env.agent.driver [apb_driver] Driving transaction : addr = 0xc4dc | write = 1 | wdata = 0x0bc11008b7b82f80d 
UVM_INFO ../tb/apb_monitor.sv(29) @ 4445: uvm_test_top.env.agent.monitor [Monitor] addr : 0xc4dc | write : 1 | wdata : 0xbc11008b7b82f80d 
UVM_INFO ../tb/apb_driver.sv(20) @ 4445: uvm_test_top.env.agent.driver [apb_driver] Driving transaction : addr = 0x2dd5 | write = 0 | wdata = 0x0d05b9a1fd99b86a0 
UVM_INFO ../tb/apb_monitor.sv(29) @ 4505: uvm_test_top.env.agent.monitor [Monitor] addr : 0x2dd5 | write : 0 | wdata : 0x0 
UVM_INFO ../tb/apb_driver.sv(20) @ 4505: uvm_test_top.env.agent.driver [apb_driver] Driving transaction : addr = 0x80b3 | write = 1 | wdata = 0x065645748fde0806 
UVM_INFO ../tb/apb_monitor.sv(29) @ 4565: uvm_test_top.env.agent.monitor [Monitor] addr : 0x80b3 | write : 1 | wdata : 0x65645748fde0806 
UVM_INFO ../tb/apb_driver.sv(20) @ 4565: uvm_test_top.env.agent.driver [apb_driver] Driving transaction : addr = 0xd227 | write = 1 | wdata = 0x03a4ba9a3d9fdf6cf 
UVM_INFO ../tb/apb_monitor.sv(29) @ 4625: uvm_test_top.env.agent.monitor [Monitor] addr : 0xd227 | write : 1 | wdata : 0x3a4ba9a3d9fdf6cf 
UVM_INFO ../tb/apb_driver.sv(20) @ 4625: uvm_test_top.env.agent.driver [apb_driver] Driving transaction : addr = 0x3e4b | write = 1 | wdata = 0x0c1a3604674f442b4 
UVM_INFO ../tb/apb_monitor.sv(29) @ 4685: uvm_test_top.env.agent.monitor [Monitor] addr : 0x3e4b | write : 1 | wdata : 0xc1a3604674f442b4 
UVM_INFO ../tb/apb_driver.sv(20) @ 4685: uvm_test_top.env.agent.driver [apb_driver] Driving transaction : addr = 0xb886 | write = 1 | wdata = 0x09bb0c6c42ce1a79f 
UVM_INFO ../tb/apb_monitor.sv(29) @ 4745: uvm_test_top.env.agent.monitor [Monitor] addr : 0xb886 | write : 1 | wdata : 0x9bb0c6c42ce1a79f 
UVM_INFO ../tb/apb_driver.sv(20) @ 4745: uvm_test_top.env.agent.driver [apb_driver] Driving transaction : addr = 0xe37c | write = 1 | wdata = 0x0bf0a312310478817 
UVM_INFO ../tb/apb_monitor.sv(29) @ 4805: uvm_test_top.env.agent.monitor [Monitor] addr : 0xe37c | write : 1 | wdata : 0xbf0a312310478817 
UVM_INFO ../tb/apb_driver.sv(20) @ 4805: uvm_test_top.env.agent.driver [apb_driver] Driving transaction : addr = 0xe87c | write = 1 | wdata = 0x0f65af884684b4aa 
UVM_INFO ../tb/apb_monitor.sv(29) @ 4865: uvm_test_top.env.agent.monitor [Monitor] addr : 0xe87c | write : 1 | wdata : 0xf65af884684b4aa 
UVM_INFO ../tb/apb_driver.sv(20) @ 4865: uvm_test_top.env.agent.driver [apb_driver] Driving transaction : addr = 0xcff9 | write = 1 | wdata = 0x0d33bffd2a50ed0cd 
UVM_INFO ../tb/apb_monitor.sv(29) @ 4925: uvm_test_top.env.agent.monitor [Monitor] addr : 0xcff9 | write : 1 | wdata : 0xd33bffd2a50ed0cd 
UVM_INFO ../tb/apb_driver.sv(20) @ 4925: uvm_test_top.env.agent.driver [apb_driver] Driving transaction : addr = 0xd59f | write = 1 | wdata = 0x0df4dd3907441a943 
UVM_INFO ../tb/apb_monitor.sv(29) @ 4985: uvm_test_top.env.agent.monitor [Monitor] addr : 0xd59f | write : 1 | wdata : 0xdf4dd3907441a943 
UVM_INFO ../tb/apb_driver.sv(20) @ 4985: uvm_test_top.env.agent.driver [apb_driver] Driving transaction : addr = 0x86bf | write = 0 | wdata = 0x034f3bd372d842a7c 
UVM_INFO ../tb/apb_monitor.sv(29) @ 5045: uvm_test_top.env.agent.monitor [Monitor] addr : 0x86bf | write : 0 | wdata : 0x0 
UVM_INFO ../tb/apb_driver.sv(20) @ 5045: uvm_test_top.env.agent.driver [apb_driver] Driving transaction : addr = 0xb19 | write = 0 | wdata = 0x0da10f8f02d0622f3 
UVM_INFO ../tb/apb_monitor.sv(29) @ 5105: uvm_test_top.env.agent.monitor [Monitor] addr : 0xb19 | write : 0 | wdata : 0x0 
UVM_INFO ../tb/apb_driver.sv(20) @ 5105: uvm_test_top.env.agent.driver [apb_driver] Driving transaction : addr = 0xa22c | write = 0 | wdata = 0x04bb5a1fb389d9a30 
UVM_INFO ../tb/apb_monitor.sv(29) @ 5165: uvm_test_top.env.agent.monitor [Monitor] addr : 0xa22c | write : 0 | wdata : 0x0 
UVM_INFO ../tb/apb_driver.sv(20) @ 5165: uvm_test_top.env.agent.driver [apb_driver] Driving transaction : addr = 0xa546 | write = 0 | wdata = 0x056eb7121e5e6ab74 
UVM_INFO ../tb/apb_monitor.sv(29) @ 5225: uvm_test_top.env.agent.monitor [Monitor] addr : 0xa546 | write : 0 | wdata : 0x0 
UVM_INFO ../tb/apb_driver.sv(20) @ 5225: uvm_test_top.env.agent.driver [apb_driver] Driving transaction : addr = 0x2e26 | write = 1 | wdata = 0x0508bbe858059cd3d 
UVM_INFO ../tb/apb_monitor.sv(29) @ 5285: uvm_test_top.env.agent.monitor [Monitor] addr : 0x2e26 | write : 1 | wdata : 0x508bbe858059cd3d 
UVM_INFO ../tb/apb_driver.sv(20) @ 5285: uvm_test_top.env.agent.driver [apb_driver] Driving transaction : addr = 0x9022 | write = 0 | wdata = 0x01f7d2549900d19aa 
UVM_INFO ../tb/apb_monitor.sv(29) @ 5345: uvm_test_top.env.agent.monitor [Monitor] addr : 0x9022 | write : 0 | wdata : 0x0 
UVM_INFO ../tb/apb_driver.sv(20) @ 5345: uvm_test_top.env.agent.driver [apb_driver] Driving transaction : addr = 0x2f15 | write = 1 | wdata = 0x0b36cb79e9f481fbb 
UVM_INFO ../tb/apb_monitor.sv(29) @ 5405: uvm_test_top.env.agent.monitor [Monitor] addr : 0x2f15 | write : 1 | wdata : 0xb36cb79e9f481fbb 
UVM_INFO ../tb/apb_driver.sv(20) @ 5405: uvm_test_top.env.agent.driver [apb_driver] Driving transaction : addr = 0x89a9b063 | write = 0 | wdata = 0x039e8b3b45d83e203 
UVM_INFO ../tb/apb_monitor.sv(29) @ 5465: uvm_test_top.env.agent.monitor [Monitor] addr : 0x89a9b063 | write : 0 | wdata : 0x0 
UVM_INFO ../tb/apb_driver.sv(20) @ 5465: uvm_test_top.env.agent.driver [apb_driver] Driving transaction : addr = 0x4178e4a1 | write = 0 | wdata = 0x0fa047f2a748f5358 
UVM_INFO ../tb/apb_monitor.sv(29) @ 5525: uvm_test_top.env.agent.monitor [Monitor] addr : 0x4178e4a1 | write : 0 | wdata : 0x0 
UVM_INFO ../tb/apb_driver.sv(20) @ 5525: uvm_test_top.env.agent.driver [apb_driver] Driving transaction : addr = 0x12be3129 | write = 0 | wdata = 0x095e50f5eecd2f018 
UVM_INFO ../tb/apb_monitor.sv(29) @ 5585: uvm_test_top.env.agent.monitor [Monitor] addr : 0x12be3129 | write : 0 | wdata : 0x0 
UVM_INFO ../tb/apb_driver.sv(20) @ 5585: uvm_test_top.env.agent.driver [apb_driver] Driving transaction : addr = 0x844111c3 | write = 0 | wdata = 0x0f1d33bac0e54f8d8 
UVM_INFO ../tb/apb_monitor.sv(29) @ 5645: uvm_test_top.env.agent.monitor [Monitor] addr : 0x844111c3 | write : 0 | wdata : 0x0 
UVM_INFO ../tb/apb_driver.sv(20) @ 5645: uvm_test_top.env.agent.driver [apb_driver] Driving transaction : addr = 0x3093403a | write = 0 | wdata = 0x091264a0db2bfccca 
UVM_INFO ../tb/apb_monitor.sv(29) @ 5705: uvm_test_top.env.agent.monitor [Monitor] addr : 0x3093403a | write : 0 | wdata : 0x0 
UVM_INFO ../tb/apb_driver.sv(20) @ 5705: uvm_test_top.env.agent.driver [apb_driver] Driving transaction : addr = 0xb376be6d | write = 0 | wdata = 0x026a2b2172aac1308 
UVM_INFO ../tb/apb_monitor.sv(29) @ 5765: uvm_test_top.env.agent.monitor [Monitor] addr : 0xb376be6d | write : 0 | wdata : 0x0 
UVM_INFO ../tb/apb_driver.sv(20) @ 5765: uvm_test_top.env.agent.driver [apb_driver] Driving transaction : addr = 0x780f18e5 | write = 0 | wdata = 0x0200fe9c2a5d3cb1f 
UVM_INFO ../tb/apb_monitor.sv(29) @ 5825: uvm_test_top.env.agent.monitor [Monitor] addr : 0x780f18e5 | write : 0 | wdata : 0x0 
UVM_INFO ../tb/apb_driver.sv(20) @ 5825: uvm_test_top.env.agent.driver [apb_driver] Driving transaction : addr = 0xb6f7c1ad | write = 1 | wdata = 0x069c70ee3b253286f 
UVM_INFO ../tb/apb_monitor.sv(29) @ 5885: uvm_test_top.env.agent.monitor [Monitor] addr : 0xb6f7c1ad | write : 1 | wdata : 0x69c70ee3b253286f 
UVM_INFO ../tb/apb_driver.sv(20) @ 5885: uvm_test_top.env.agent.driver [apb_driver] Driving transaction : addr = 0xeaa9cfe7 | write = 1 | wdata = 0x051b97efdba4bf1ce 
UVM_INFO ../tb/apb_monitor.sv(29) @ 5945: uvm_test_top.env.agent.monitor [Monitor] addr : 0xeaa9cfe7 | write : 1 | wdata : 0x51b97efdba4bf1ce 
UVM_INFO ../tb/apb_driver.sv(20) @ 5945: uvm_test_top.env.agent.driver [apb_driver] Driving transaction : addr = 0xd0c62a73 | write = 1 | wdata = 0x01d0fac78a0b8f6eb 
UVM_INFO ../tb/apb_monitor.sv(29) @ 6005: uvm_test_top.env.agent.monitor [Monitor] addr : 0xd0c62a73 | write : 1 | wdata : 0x1d0fac78a0b8f6eb 
UVM_INFO ../tb/apb_driver.sv(20) @ 6005: uvm_test_top.env.agent.driver [apb_driver] Driving transaction : addr = 0x60df4334 | write = 0 | wdata = 0x0a744fae89d92524f 
UVM_INFO ../tb/apb_monitor.sv(29) @ 6065: uvm_test_top.env.agent.monitor [Monitor] addr : 0x60df4334 | write : 0 | wdata : 0x0 
UVM_INFO ../tb/apb_driver.sv(20) @ 6065: uvm_test_top.env.agent.driver [apb_driver] Driving transaction : addr = 0xa1547e2f | write = 1 | wdata = 0x0e3f7cebe81a64cbe 
UVM_INFO ../tb/apb_monitor.sv(29) @ 6125: uvm_test_top.env.agent.monitor [Monitor] addr : 0xa1547e2f | write : 1 | wdata : 0xe3f7cebe81a64cbe 
UVM_INFO ../tb/apb_driver.sv(20) @ 6125: uvm_test_top.env.agent.driver [apb_driver] Driving transaction : addr = 0x1cb18af1 | write = 0 | wdata = 0x023c05e67ed7065eb 
UVM_INFO ../tb/apb_monitor.sv(29) @ 6185: uvm_test_top.env.agent.monitor [Monitor] addr : 0x1cb18af1 | write : 0 | wdata : 0x0 
UVM_INFO ../tb/apb_driver.sv(20) @ 6185: uvm_test_top.env.agent.driver [apb_driver] Driving transaction : addr = 0xc7ec9dc | write = 0 | wdata = 0x050abb0a94d154ca4 
UVM_INFO ../tb/apb_monitor.sv(29) @ 6245: uvm_test_top.env.agent.monitor [Monitor] addr : 0xc7ec9dc | write : 0 | wdata : 0x0 
UVM_INFO ../tb/apb_driver.sv(20) @ 6245: uvm_test_top.env.agent.driver [apb_driver] Driving transaction : addr = 0x98e247ef | write = 0 | wdata = 0x092ae7b4f6c95b478 
UVM_INFO ../tb/apb_monitor.sv(29) @ 6305: uvm_test_top.env.agent.monitor [Monitor] addr : 0x98e247ef | write : 0 | wdata : 0x0 
UVM_INFO ../tb/apb_driver.sv(20) @ 6305: uvm_test_top.env.agent.driver [apb_driver] Driving transaction : addr = 0x84f88774 | write = 0 | wdata = 0x0b76f47384d2affc5 
UVM_INFO ../tb/apb_monitor.sv(29) @ 6365: uvm_test_top.env.agent.monitor [Monitor] addr : 0x84f88774 | write : 0 | wdata : 0x0 
UVM_INFO ../tb/apb_driver.sv(20) @ 6365: uvm_test_top.env.agent.driver [apb_driver] Driving transaction : addr = 0x3b056864 | write = 1 | wdata = 0x03fa2a1ce25dec283 
UVM_INFO ../tb/apb_monitor.sv(29) @ 6425: uvm_test_top.env.agent.monitor [Monitor] addr : 0x3b056864 | write : 1 | wdata : 0x3fa2a1ce25dec283 
UVM_INFO ../tb/apb_driver.sv(20) @ 6425: uvm_test_top.env.agent.driver [apb_driver] Driving transaction : addr = 0x6c2100db | write = 0 | wdata = 0x0916f2dc56dab2a8a 
UVM_INFO ../tb/apb_monitor.sv(29) @ 6485: uvm_test_top.env.agent.monitor [Monitor] addr : 0x6c2100db | write : 0 | wdata : 0x0 
UVM_INFO ../tb/apb_driver.sv(20) @ 6485: uvm_test_top.env.agent.driver [apb_driver] Driving transaction : addr = 0xd7d8d10d | write = 1 | wdata = 0x08a5adfe10f4684b9 
UVM_INFO ../tb/apb_monitor.sv(29) @ 6545: uvm_test_top.env.agent.monitor [Monitor] addr : 0xd7d8d10d | write : 1 | wdata : 0x8a5adfe10f4684b9 
UVM_INFO ../tb/apb_driver.sv(20) @ 6545: uvm_test_top.env.agent.driver [apb_driver] Driving transaction : addr = 0x2793e5a9 | write = 0 | wdata = 0x0e9c4154c7eb6c1dc 
UVM_INFO ../tb/apb_monitor.sv(29) @ 6605: uvm_test_top.env.agent.monitor [Monitor] addr : 0x2793e5a9 | write : 0 | wdata : 0x0 
UVM_INFO ../tb/apb_driver.sv(20) @ 6605: uvm_test_top.env.agent.driver [apb_driver] Driving transaction : addr = 0x7506d23c | write = 0 | wdata = 0x0d0a8db6b3d0a44c8 
UVM_INFO ../tb/apb_monitor.sv(29) @ 6665: uvm_test_top.env.agent.monitor [Monitor] addr : 0x7506d23c | write : 0 | wdata : 0x0 
UVM_INFO ../tb/apb_driver.sv(20) @ 6665: uvm_test_top.env.agent.driver [apb_driver] Driving transaction : addr = 0x122a27b7 | write = 0 | wdata = 0x08467391bd2e29392 
UVM_INFO ../tb/apb_monitor.sv(29) @ 6725: uvm_test_top.env.agent.monitor [Monitor] addr : 0x122a27b7 | write : 0 | wdata : 0x0 
UVM_INFO ../tb/apb_driver.sv(20) @ 6725: uvm_test_top.env.agent.driver [apb_driver] Driving transaction : addr = 0xd9b7 | write = 0 | wdata = 0x084cf07ed6d2621f1 
UVM_INFO ../tb/apb_monitor.sv(29) @ 6785: uvm_test_top.env.agent.monitor [Monitor] addr : 0xd9b7 | write : 0 | wdata : 0x0 
UVM_INFO ../tb/apb_driver.sv(20) @ 6785: uvm_test_top.env.agent.driver [apb_driver] Driving transaction : addr = 0xb4a2cc6f | write = 1 | wdata = 0x0d12c50c6019b50e6 
UVM_INFO ../tb/apb_monitor.sv(29) @ 6845: uvm_test_top.env.agent.monitor [Monitor] addr : 0xb4a2cc6f | write : 1 | wdata : 0xd12c50c6019b50e6 
UVM_INFO ../tb/apb_driver.sv(20) @ 6845: uvm_test_top.env.agent.driver [apb_driver] Driving transaction : addr = 0xf6d3 | write = 0 | wdata = 0x0f48a351cf4fddee7 
UVM_INFO ../tb/apb_monitor.sv(29) @ 6905: uvm_test_top.env.agent.monitor [Monitor] addr : 0xf6d3 | write : 0 | wdata : 0x0 
UVM_INFO ../tb/apb_driver.sv(20) @ 6905: uvm_test_top.env.agent.driver [apb_driver] Driving transaction : addr = 0xe4ae96b7 | write = 0 | wdata = 0x0648fe8cdb2eca27e 
UVM_INFO ../tb/apb_monitor.sv(29) @ 6965: uvm_test_top.env.agent.monitor [Monitor] addr : 0xe4ae96b7 | write : 0 | wdata : 0x0 
UVM_INFO ../tb/apb_driver.sv(20) @ 6965: uvm_test_top.env.agent.driver [apb_driver] Driving transaction : addr = 0x83ced61a | write = 1 | wdata = 0x0153993887e8ead59 
UVM_INFO ../tb/apb_monitor.sv(29) @ 7025: uvm_test_top.env.agent.monitor [Monitor] addr : 0x83ced61a | write : 1 | wdata : 0x153993887e8ead59 
UVM_INFO ../tb/apb_driver.sv(20) @ 7025: uvm_test_top.env.agent.driver [apb_driver] Driving transaction : addr = 0xf4a03b93 | write = 1 | wdata = 0x02f3e23e135806910 
UVM_INFO ../tb/apb_monitor.sv(29) @ 7085: uvm_test_top.env.agent.monitor [Monitor] addr : 0xf4a03b93 | write : 1 | wdata : 0x2f3e23e135806910 
UVM_INFO ../tb/apb_driver.sv(20) @ 7085: uvm_test_top.env.agent.driver [apb_driver] Driving transaction : addr = 0xf423 | write = 1 | wdata = 0x0b3fd68e1219f6992 
UVM_INFO ../tb/apb_monitor.sv(29) @ 7145: uvm_test_top.env.agent.monitor [Monitor] addr : 0xf423 | write : 1 | wdata : 0xb3fd68e1219f6992 
UVM_INFO ../tb/apb_driver.sv(20) @ 7145: uvm_test_top.env.agent.driver [apb_driver] Driving transaction : addr = 0x79d1b09e | write = 0 | wdata = 0x0b9ed30dd7a1e033b 
UVM_INFO ../tb/apb_monitor.sv(29) @ 7205: uvm_test_top.env.agent.monitor [Monitor] addr : 0x79d1b09e | write : 0 | wdata : 0x0 
UVM_INFO ../tb/apb_driver.sv(20) @ 7205: uvm_test_top.env.agent.driver [apb_driver] Driving transaction : addr = 0x292c40bb | write = 1 | wdata = 0x0412760396290b798 
UVM_INFO ../tb/apb_monitor.sv(29) @ 7265: uvm_test_top.env.agent.monitor [Monitor] addr : 0x292c40bb | write : 1 | wdata : 0x412760396290b798 
UVM_INFO ../tb/apb_driver.sv(20) @ 7265: uvm_test_top.env.agent.driver [apb_driver] Driving transaction : addr = 0xeac3 | write = 0 | wdata = 0x0a790b203b9264a56 
UVM_INFO ../tb/apb_monitor.sv(29) @ 7325: uvm_test_top.env.agent.monitor [Monitor] addr : 0xeac3 | write : 0 | wdata : 0x0 
UVM_INFO ../tb/apb_driver.sv(20) @ 7325: uvm_test_top.env.agent.driver [apb_driver] Driving transaction : addr = 0xf4f4 | write = 0 | wdata = 0x09f17856febc7b2cc 
UVM_INFO ../tb/apb_monitor.sv(29) @ 7385: uvm_test_top.env.agent.monitor [Monitor] addr : 0xf4f4 | write : 0 | wdata : 0x0 
UVM_INFO ../tb/apb_driver.sv(20) @ 7385: uvm_test_top.env.agent.driver [apb_driver] Driving transaction : addr = 0x6d0a2c73 | write = 0 | wdata = 0x0a3f48465d09550e3 
UVM_INFO ../tb/apb_monitor.sv(29) @ 7445: uvm_test_top.env.agent.monitor [Monitor] addr : 0x6d0a2c73 | write : 0 | wdata : 0x0 
UVM_INFO ../tb/apb_driver.sv(20) @ 7445: uvm_test_top.env.agent.driver [apb_driver] Driving transaction : addr = 0xa59b | write = 0 | wdata = 0x0ce382878e06a886d 
UVM_INFO ../tb/apb_monitor.sv(29) @ 7505: uvm_test_top.env.agent.monitor [Monitor] addr : 0xa59b | write : 0 | wdata : 0x0 
UVM_INFO ../tb/apb_driver.sv(20) @ 7505: uvm_test_top.env.agent.driver [apb_driver] Driving transaction : addr = 0x3d5a | write = 0 | wdata = 0x082d333944c841a99 
UVM_INFO ../tb/apb_monitor.sv(29) @ 7565: uvm_test_top.env.agent.monitor [Monitor] addr : 0x3d5a | write : 0 | wdata : 0x0 
UVM_INFO ../tb/apb_driver.sv(20) @ 7565: uvm_test_top.env.agent.driver [apb_driver] Driving transaction : addr = 0x6c1e66ed | write = 0 | wdata = 0x0e90c871b406fd7ce 
UVM_INFO ../tb/apb_monitor.sv(29) @ 7625: uvm_test_top.env.agent.monitor [Monitor] addr : 0x6c1e66ed | write : 0 | wdata : 0x0 
UVM_INFO ../tb/apb_driver.sv(20) @ 7625: uvm_test_top.env.agent.driver [apb_driver] Driving transaction : addr = 0x82de | write = 0 | wdata = 0x09c29787cea064f10 
UVM_INFO ../tb/apb_monitor.sv(29) @ 7685: uvm_test_top.env.agent.monitor [Monitor] addr : 0x82de | write : 0 | wdata : 0x0 
UVM_INFO ../tb/apb_driver.sv(20) @ 7685: uvm_test_top.env.agent.driver [apb_driver] Driving transaction : addr = 0xb03fd19 | write = 0 | wdata = 0x0f14cb56bc5bb41d6 
UVM_INFO ../tb/apb_monitor.sv(29) @ 7745: uvm_test_top.env.agent.monitor [Monitor] addr : 0xb03fd19 | write : 0 | wdata : 0x0 
UVM_INFO ../tb/apb_driver.sv(20) @ 7745: uvm_test_top.env.agent.driver [apb_driver] Driving transaction : addr = 0xa538 | write = 1 | wdata = 0x05b2bc48ae1f55ad6 
UVM_INFO ../tb/apb_monitor.sv(29) @ 7805: uvm_test_top.env.agent.monitor [Monitor] addr : 0xa538 | write : 1 | wdata : 0x5b2bc48ae1f55ad6 
UVM_INFO ../tb/apb_driver.sv(20) @ 7805: uvm_test_top.env.agent.driver [apb_driver] Driving transaction : addr = 0x7d30 | write = 1 | wdata = 0x0afd09e42ce5e8f7d 
UVM_INFO ../tb/apb_monitor.sv(29) @ 7865: uvm_test_top.env.agent.monitor [Monitor] addr : 0x7d30 | write : 1 | wdata : 0xafd09e42ce5e8f7d 
UVM_INFO ../tb/apb_driver.sv(20) @ 7865: uvm_test_top.env.agent.driver [apb_driver] Driving transaction : addr = 0x9f01 | write = 0 | wdata = 0x0f249a4d9e413662c 
UVM_INFO ../tb/apb_monitor.sv(29) @ 7925: uvm_test_top.env.agent.monitor [Monitor] addr : 0x9f01 | write : 0 | wdata : 0x0 
UVM_INFO ../tb/apb_driver.sv(20) @ 7925: uvm_test_top.env.agent.driver [apb_driver] Driving transaction : addr = 0x6047 | write = 0 | wdata = 0x0874922a87d5acd68 
UVM_INFO ../tb/apb_monitor.sv(29) @ 7985: uvm_test_top.env.agent.monitor [Monitor] addr : 0x6047 | write : 0 | wdata : 0x0 
UVM_INFO ../tb/apb_driver.sv(20) @ 7985: uvm_test_top.env.agent.driver [apb_driver] Driving transaction : addr = 0x3417 | write = 0 | wdata = 0x0ab41d7e2f51ddc6a 
UVM_INFO ../tb/apb_monitor.sv(29) @ 8045: uvm_test_top.env.agent.monitor [Monitor] addr : 0x3417 | write : 0 | wdata : 0x0 
UVM_INFO ../tb/apb_driver.sv(20) @ 8045: uvm_test_top.env.agent.driver [apb_driver] Driving transaction : addr = 0x6c98 | write = 1 | wdata = 0x0b55fef165fbcdb5f 
UVM_INFO ../tb/apb_monitor.sv(29) @ 8105: uvm_test_top.env.agent.monitor [Monitor] addr : 0x6c98 | write : 1 | wdata : 0xb55fef165fbcdb5f 
UVM_INFO ../tb/apb_driver.sv(20) @ 8105: uvm_test_top.env.agent.driver [apb_driver] Driving transaction : addr = 0x26fe | write = 0 | wdata = 0x065849ed3c87c04de 
UVM_INFO ../tb/apb_monitor.sv(29) @ 8165: uvm_test_top.env.agent.monitor [Monitor] addr : 0x26fe | write : 0 | wdata : 0x0 
UVM_INFO ../tb/apb_driver.sv(20) @ 8165: uvm_test_top.env.agent.driver [apb_driver] Driving transaction : addr = 0x96b331f2 | write = 0 | wdata = 0x0a238fb81d43fd46d 
UVM_INFO ../tb/apb_monitor.sv(29) @ 8225: uvm_test_top.env.agent.monitor [Monitor] addr : 0x96b331f2 | write : 0 | wdata : 0x0 
UVM_INFO ../tb/apb_driver.sv(20) @ 8225: uvm_test_top.env.agent.driver [apb_driver] Driving transaction : addr = 0x40c3 | write = 0 | wdata = 0x0df220d1408797bf4 
UVM_INFO ../tb/apb_monitor.sv(29) @ 8285: uvm_test_top.env.agent.monitor [Monitor] addr : 0x40c3 | write : 0 | wdata : 0x0 
UVM_INFO ../tb/apb_driver.sv(20) @ 8285: uvm_test_top.env.agent.driver [apb_driver] Driving transaction : addr = 0xa953 | write = 0 | wdata = 0x0fde213eb09c4fa61 
UVM_INFO ../tb/apb_monitor.sv(29) @ 8345: uvm_test_top.env.agent.monitor [Monitor] addr : 0xa953 | write : 0 | wdata : 0x0 
UVM_INFO ../tb/apb_driver.sv(20) @ 8345: uvm_test_top.env.agent.driver [apb_driver] Driving transaction : addr = 0xe23b9b | write = 0 | wdata = 0x0214323a0a9dd1982 
UVM_INFO ../tb/apb_monitor.sv(29) @ 8405: uvm_test_top.env.agent.monitor [Monitor] addr : 0xe23b9b | write : 0 | wdata : 0x0 
UVM_INFO ../tb/apb_driver.sv(20) @ 8405: uvm_test_top.env.agent.driver [apb_driver] Driving transaction : addr = 0x89cb | write = 1 | wdata = 0x0e1d7eddf6456bf37 
UVM_INFO ../tb/apb_monitor.sv(29) @ 8465: uvm_test_top.env.agent.monitor [Monitor] addr : 0x89cb | write : 1 | wdata : 0xe1d7eddf6456bf37 
UVM_INFO ../tb/apb_driver.sv(20) @ 8465: uvm_test_top.env.agent.driver [apb_driver] Driving transaction : addr = 0xf636fcd5 | write = 1 | wdata = 0x020454b75d03c3fc8 
UVM_INFO ../tb/apb_monitor.sv(29) @ 8525: uvm_test_top.env.agent.monitor [Monitor] addr : 0xf636fcd5 | write : 1 | wdata : 0x20454b75d03c3fc8 
UVM_INFO ../tb/apb_driver.sv(20) @ 8525: uvm_test_top.env.agent.driver [apb_driver] Driving transaction : addr = 0xd493 | write = 1 | wdata = 0x0ecd171201c817849 
UVM_INFO ../tb/apb_monitor.sv(29) @ 8585: uvm_test_top.env.agent.monitor [Monitor] addr : 0xd493 | write : 1 | wdata : 0xecd171201c817849 
UVM_INFO ../tb/apb_driver.sv(20) @ 8585: uvm_test_top.env.agent.driver [apb_driver] Driving transaction : addr = 0xf175e898 | write = 0 | wdata = 0x0f50990d2d6f7bfde 
UVM_INFO ../tb/apb_monitor.sv(29) @ 8645: uvm_test_top.env.agent.monitor [Monitor] addr : 0xf175e898 | write : 0 | wdata : 0x0 
UVM_INFO ../tb/apb_driver.sv(20) @ 8645: uvm_test_top.env.agent.driver [apb_driver] Driving transaction : addr = 0x3ca89a16 | write = 0 | wdata = 0x0c631c28624aba4ad 
UVM_INFO ../tb/apb_monitor.sv(29) @ 8705: uvm_test_top.env.agent.monitor [Monitor] addr : 0x3ca89a16 | write : 0 | wdata : 0x0 
UVM_INFO ../tb/apb_driver.sv(20) @ 8705: uvm_test_top.env.agent.driver [apb_driver] Driving transaction : addr = 0x39d8 | write = 0 | wdata = 0x0e04d4c7cd8d0343 
UVM_INFO ../tb/apb_monitor.sv(29) @ 8765: uvm_test_top.env.agent.monitor [Monitor] addr : 0x39d8 | write : 0 | wdata : 0x0 
UVM_INFO ../tb/apb_driver.sv(20) @ 8765: uvm_test_top.env.agent.driver [apb_driver] Driving transaction : addr = 0x8a99 | write = 1 | wdata = 0x07f61c3bcf2dd5576 
UVM_INFO ../tb/apb_monitor.sv(29) @ 8825: uvm_test_top.env.agent.monitor [Monitor] addr : 0x8a99 | write : 1 | wdata : 0x7f61c3bcf2dd5576 
UVM_INFO ../tb/apb_driver.sv(20) @ 8825: uvm_test_top.env.agent.driver [apb_driver] Driving transaction : addr = 0xd414 | write = 0 | wdata = 0x075e143cd27a54750 
UVM_INFO ../tb/apb_monitor.sv(29) @ 8885: uvm_test_top.env.agent.monitor [Monitor] addr : 0xd414 | write : 0 | wdata : 0x0 
UVM_INFO ../tb/apb_driver.sv(20) @ 8885: uvm_test_top.env.agent.driver [apb_driver] Driving transaction : addr = 0x4936 | write = 0 | wdata = 0x0a05c1e15fac4eca 
UVM_INFO ../tb/apb_monitor.sv(29) @ 8945: uvm_test_top.env.agent.monitor [Monitor] addr : 0x4936 | write : 0 | wdata : 0x0 
UVM_INFO ../tb/apb_driver.sv(20) @ 8945: uvm_test_top.env.agent.driver [apb_driver] Driving transaction : addr = 0xad92 | write = 0 | wdata = 0x04def67d0410660ef 
UVM_INFO ../tb/apb_monitor.sv(29) @ 9005: uvm_test_top.env.agent.monitor [Monitor] addr : 0xad92 | write : 0 | wdata : 0x0 
UVM_INFO ../tb/apb_err_seq.sv(78) @ 9005: uvm_test_top.env.agent.sequencer@@seq [apb_err_seq] Error Injection Sequence Finished
UVM_INFO ../tb/apb_test.sv(68) @ 9105: uvm_test_top [apb_err_test] Test run phase: seq done
UVM_INFO /usr/synopsys/vcs-L-2016.06//etc/uvm-1.2/base/uvm_objection.svh(1270) @ 9105: reporter [TEST_DONE] 'run' phase is ready to proceed to the 'extract' phase
UVM_INFO ../tb/apb_coverage.sv(157) @ 9105: uvm_test_top.env.cov [COV_SUMMARY] ------------FUNCTIONAL COVERAGE-----------
UVM_INFO ../tb/apb_coverage.sv(158) @ 9105: uvm_test_top.env.cov [COV_SUMMARY] cg     (transfer coverage)  : 76.67 %
UVM_INFO ../tb/apb_coverage.sv(159) @ 9105: uvm_test_top.env.cov [COV_SUMMARY] cg_b2b (back-to-back)       : 70.00 %
UVM_INFO ../tb/apb_scoreboard.sv(85) @ 9105: uvm_test_top.env.scb [SCB_SUMMARY] ------------SCOREBOARD SUMMARY-----------
UVM_INFO ../tb/apb_scoreboard.sv(86) @ 9105: uvm_test_top.env.scb [SCB_SUMMARY] Total Transfer :150
UVM_INFO ../tb/apb_scoreboard.sv(87) @ 9105: uvm_test_top.env.scb [SCB_SUMMARY] Write/Read :69/81
UVM_INFO ../tb/apb_scoreboard.sv(89) @ 9105: uvm_test_top.env.scb [SCB_SUMMARY] PSLVERR Check pass/fail:150/0
UVM_INFO ../tb/apb_scoreboard.sv(90) @ 9105: uvm_test_top.env.scb [SCB_SUMMARY] Read data Check pass/fail :8/0
UVM_INFO ../tb/apb_scoreboard.sv(91) @ 9105: uvm_test_top.env.scb [SCB_SUMMARY] Unchecked read bytes (never written) :3
UVM_INFO ../tb/apb_base_test.sv(49) @ 9105: uvm_test_top [apb_err_test] ---------------------------------------
UVM_INFO ../tb/apb_base_test.sv(50) @ 9105: uvm_test_top [apb_err_test] ----           TEST PASS           ----
UVM_INFO ../tb/apb_base_test.sv(51) @ 9105: uvm_test_top [apb_err_test] ---------------------------------------
UVM_INFO /usr/synopsys/vcs-L-2016.06//etc/uvm-1.2/base/uvm_report_catcher.svh(705) @ 9105: reporter [UVM/REPORT/CATCHER] 
--- UVM Report catcher Summary ---


Number of demoted UVM_FATAL reports  :    0
Number of demoted UVM_ERROR reports  :    0
Number of demoted UVM_WARNING reports:    0
Number of caught UVM_FATAL reports   :    0
Number of caught UVM_ERROR reports   :    0
Number of caught UVM_WARNING reports :    0

UVM_INFO /usr/synopsys/vcs-L-2016.06//etc/uvm-1.2/base/uvm_report_server.svh(894) @ 9105: reporter [UVM/REPORT/SERVER] 
--- UVM Report Summary ---

** Report counts by severity
UVM_INFO :  331
UVM_WARNING :    0
UVM_ERROR :    0
UVM_FATAL :    0
** Report counts by id
[COV_SUMMARY]     3
[Monitor]   150
[RNTST]     1
[SCB_SUMMARY]     6
[TB_TOP]     1
[TEST_DONE]     1
[TIMOUTSET]     1
[UVM/RELNOTES]     1
[UVM/REPORT/CATCHER]     1
[apb_agent]     1
[apb_driver]   152
[apb_env]     2
[apb_err_seq]     2
[apb_err_test]     6
[apb_mon]     2
[apb_sequencer]     1

$finish called from file "/usr/synopsys/vcs-L-2016.06//etc/uvm-1.2/base/uvm_root.svh", line 527.
$finish at simulation time                 9105

---------------------------------------------------------------------------
VCS Coverage Metrics: during simulation line, cond, tgl was monitored
---------------------------------------------------------------------------

 Coverage status: End of All Coverages ...

           V C S   S i m u l a t i o n   R e p o r t 
Time: 9105
CPU Time:      0.570 seconds;       Data structure size:   0.4Mb
Sun Oct  4 21:11:46 2026
