
Note-[RT_BS] Larger stack needed
  Note: Bumping stack limit from 8192 to 8250 Kbytes.

Chronologic VCS simulator copyright 1991-2016
Contains Synopsys proprietary information.
Compiler version L-2016.06_Full64; Runtime version L-2016.06_Full64;  Oct  4 21:12 2026
UVM_INFO /usr/synopsys/vcs-L-2016.06//etc/uvm-1.2/base/uvm_root.svh(402) @ 0: reporter [UVM/RELNOTES] 
----------------------------------------------------------------
UVM-1.2.Synopsys
(C) 2007-2014 Mentor Graphics Corporation
(C) 2007-2014 Cadence Design Systems, Inc.
(C) 2006-2014 Synopsys, Inc.
(C) 2011-2013 Cypress Semiconductor Corp.
(C) 2013-2014 NVIDIA Corporation
----------------------------------------------------------------

  ***********       IMPORTANT RELEASE NOTES         ************

  You are using a version of the UVM library that has been compiled
  with `UVM_NO_DEPRECATED undefined.
  See http://www.eda.org/svdb/view.php?id=3313 for more details.

  You are using a version of the UVM library that has been compiled
  with `UVM_OBJECT_DO_NOT_NEED_CONSTRUCTOR undefined.
  See http://www.eda.org/svdb/view.php?id=3770 for more details.

      (Specify +UVM_NO_RELNOTES to turn off this notice)


 VCS Coverage Metrics Release L-2016.06_Full64 Copyright (c) 1991-2016 by Synopsys Inc.
UVM_INFO ../tb/apb_top.sv(44) @ 0: reporter [TB_TOP] Starting UVM Test ...
UVM_INFO @ 0: reporter [RNTST] Running test apb_err_alias_test...
VCD+ Writer L-2016.06_Full64 Copyright (c) 1991-2016 by Synopsys Inc.
UVM_INFO @ 0: reporter [TIMOUTSET] '+UVM_TIMEOUT=9200000' provided on the command line is being applied.
UVM_INFO ../tb/apb_test.sv(81) @ 0: uvm_test_top [apb_err_alias_test] Test build phase
UVM_INFO ../tb/apb_env.sv(13) @ 0: uvm_test_top.env [apb_env] Env build phase

Note-[FCICIO] Instance coverage is ON
/mnt/mydata/APB_UVM/sim/../tb/apb_coverage.sv, 28
apb_pkg, "apb_pkg::apb_coverage::cg"
  Instance coverage is set (option.per_instance = 1) for covergroup 
  'apb_pkg::apb_coverage::cg'
  
  Covergroup Instance: tb_top.me.obj.cg 
  Design hierarchy: apb_pkg


Note-[FCICIO] Instance coverage is ON
/mnt/mydata/APB_UVM/sim/../tb/apb_coverage.sv, 86
apb_pkg, "apb_pkg::apb_coverage::cg_b2b"
  Instance coverage is set (option.per_instance = 1) for covergroup 
  'apb_pkg::apb_coverage::cg_b2b'
  
  Covergroup Instance: tb_top.me.obj.cg_b2b 
  Design hierarchy: apb_pkg

UVM_INFO ../tb/apb_agent.sv(13) @ 0: uvm_test_top.env.agent [apb_agent] Agent build phase
UVM_INFO ../tb/apb_sequencer.sv(6) @ 0: uvm_test_top.env.agent.sequencer [apb_sequencer] sequence build phase
UVM_INFO ../tb/apb_driver.sv(11) @ 0: uvm_test_top.env.agent.driver [apb_driver] Driver build phase
UVM_INFO ../tb/apb_monitor.sv(12) @ 0: uvm_test_top.env.agent.monitor [apb_mon] apb_mon build phase
UVM_INFO ../tb/apb_env.sv(21) @ 0: uvm_test_top.env [apb_env] Env connect phase
--------------------------------------------------------------
Name                       Type                    Size  Value
--------------------------------------------------------------
uvm_test_top               apb_err_alias_test      -     @343 
  env                      apb_env                 -     @358 
    agent                  apb_agent               -     @377 
      driver               apb_driver              -     @417 
        rsp_port           uvm_analysis_port       -     @436 
        seq_item_port      uvm_seq_item_pull_port  -     @426 
      monitor              apb_mon                 -     @585 
        ap                 uvm_analysis_port       -     @597 
      sequencer            apb_sequencer           -     @446 
        rsp_export         uvm_analysis_export     -     @455 
        seq_item_export    uvm_seq_item_pull_imp   -     @573 
        arbitration_queue  array                   0     -    
        lock_queue         array                   0     -    
        num_last_reqs      integral                32    'd1  
        num_last_rsps      integral                32    'd1  
    cov                    apb_coverage            -     @395 
      analysis_imp         uvm_analysis_imp        -     @404 
    scb                    apb_scoreboard          -     @386 
      item_export          uvm_analysis_imp        -     @616 
--------------------------------------------------------------
UVM_INFO ../tb/apb_driver.sv(17) @ 0: uvm_test_top.env.agent.driver [apb_driver] Driver run phase started 
UVM_INFO ../tb/apb_monitor.sv(18) @ 0: uvm_test_top.env.agent.monitor [apb_mon] apb_mon run phase started 
UVM_INFO ../tb/apb_test.sv(87) @ 0: uvm_test_top [apb_err_alias_test] Test run phase
UVM_INFO ../tb/apb_err_alias_seq.sv(17) @ 0: uvm_test_top.env.agent.sequencer@@seq [apb_err_alias_seq] Error Write Aliasing Sequence Started :
UVM_INFO ../tb/apb_driver.sv(20) @ 0: uvm_test_top.env.agent.driver [apb_driver] Driving transaction : addr = 0xf830 | write = 1 | wdata = 0x0250fe8c6e2598559 
UVM_INFO ../tb/apb_monitor.sv(29) @ 65: uvm_test_top.env.agent.monitor [Monitor] addr : 0xf830 | write : 1 | wdata : 0x250fe8c6e2598559 
UVM_INFO ../tb/apb_driver.sv(20) @ 65: uvm_test_top.env.agent.driver [apb_driver] Driving transaction : addr = 0x1f830 | write = 1 | wdata = 0x0daf017391da67aa6 
UVM_INFO ../tb/apb_monitor.sv(29) @ 125: uvm_test_top.env.agent.monitor [Monitor] addr : 0x1f830 | write : 1 | wdata : 0xdaf017391da67aa6 
UVM_INFO ../tb/apb_driver.sv(20) @ 125: uvm_test_top.env.agent.driver [apb_driver] Driving transaction : addr = 0xf830 | write = 0 | wdata = 0x076a536dc8cfec5c2 
UVM_INFO ../tb/apb_monitor.sv(29) @ 185: uvm_test_top.env.agent.monitor [Monitor] addr : 0xf830 | write : 0 | wdata : 0x0 
UVM_INFO ../tb/apb_driver.sv(20) @ 185: uvm_test_top.env.agent.driver [apb_driver] Driving transaction : addr = 0x1f830 | write = 0 | wdata = 0x0a90ae6884c08b960 
UVM_INFO ../tb/apb_monitor.sv(29) @ 245: uvm_test_top.env.agent.monitor [Monitor] addr : 0x1f830 | write : 0 | wdata : 0x0 
UVM_INFO ../tb/apb_driver.sv(20) @ 245: uvm_test_top.env.agent.driver [apb_driver] Driving transaction : addr = 0x10f830 | write = 1 | wdata = 0x0daf017391da67aa6 
UVM_INFO ../tb/apb_monitor.sv(29) @ 305: uvm_test_top.env.agent.monitor [Monitor] addr : 0x10f830 | write : 1 | wdata : 0xdaf017391da67aa6 
UVM_INFO ../tb/apb_driver.sv(20) @ 305: uvm_test_top.env.agent.driver [apb_driver] Driving transaction : addr = 0xf830 | write = 0 | wdata = 0x02e4dec9e78be5622 
UVM_INFO ../tb/apb_monitor.sv(29) @ 365: uvm_test_top.env.agent.monitor [Monitor] addr : 0xf830 | write : 0 | wdata : 0x0 
UVM_INFO ../tb/apb_driver.sv(20) @ 365: uvm_test_top.env.agent.driver [apb_driver] Driving transaction : addr = 0x10f830 | write = 0 | wdata = 0x078ef284e1beb8473 
UVM_INFO ../tb/apb_monitor.sv(29) @ 425: uvm_test_top.env.agent.monitor [Monitor] addr : 0x10f830 | write : 0 | wdata : 0x0 
UVM_INFO ../tb/apb_driver.sv(20) @ 425: uvm_test_top.env.agent.driver [apb_driver] Driving transaction : addr = 0x8000f830 | write = 1 | wdata = 0x0daf017391da67aa6 
UVM_INFO ../tb/apb_monitor.sv(29) @ 485: uvm_test_top.env.agent.monitor [Monitor] addr : 0x8000f830 | write : 1 | wdata : 0xdaf017391da67aa6 
UVM_INFO ../tb/apb_driver.sv(20) @ 485: uvm_test_top.env.agent.driver [apb_driver] Driving transaction : addr = 0xf830 | write = 0 | wdata = 0x0322dd26b8bd342da 
UVM_INFO ../tb/apb_monitor.sv(29) @ 545: uvm_test_top.env.agent.monitor [Monitor] addr : 0xf830 | write : 0 | wdata : 0x0 
UVM_INFO ../tb/apb_driver.sv(20) @ 545: uvm_test_top.env.agent.driver [apb_driver] Driving transaction : addr = 0x8000f830 | write = 0 | wdata = 0x0c81e8014c21d4959 
UVM_INFO ../tb/apb_monitor.sv(29) @ 605: uvm_test_top.env.agent.monitor [Monitor] addr : 0x8000f830 | write : 0 | wdata : 0x0 
UVM_INFO ../tb/apb_driver.sv(20) @ 605: uvm_test_top.env.agent.driver [apb_driver] Driving transaction : addr = 0xf831 | write = 1 | wdata = 0x0daf017391da67aa6 
UVM_INFO ../tb/apb_monitor.sv(29) @ 665: uvm_test_top.env.agent.monitor [Monitor] addr : 0xf831 | write : 1 | wdata : 0xdaf017391da67aa6 
UVM_INFO ../tb/apb_driver.sv(20) @ 665: uvm_test_top.env.agent.driver [apb_driver] Driving transaction : addr = 0xf830 | write = 0 | wdata = 0x0ebc43fc52180915f 
UVM_INFO ../tb/apb_monitor.sv(29) @ 725: uvm_test_top.env.agent.monitor [Monitor] addr : 0xf830 | write : 0 | wdata : 0x0 
UVM_INFO ../tb/apb_driver.sv(20) @ 725: uvm_test_top.env.agent.driver [apb_driver] Driving transaction : addr = 0xf831 | write = 0 | wdata = 0x0d4623d26f43316ab 
UVM_INFO ../tb/apb_monitor.sv(29) @ 785: uvm_test_top.env.agent.monitor [Monitor] addr : 0xf831 | write : 0 | wdata : 0x0 
UVM_INFO ../tb/apb_driver.sv(20) @ 785: uvm_test_top.env.agent.driver [apb_driver] Driving transaction : addr = 0xf834 | write = 1 | wdata = 0x0daf017391da67aa6 
UVM_INFO ../tb/apb_monitor.sv(29) @ 845: uvm_test_top.env.agent.monitor [Monitor] addr : 0xf834 | write : 1 | wdata : 0xdaf017391da67aa6 
UVM_INFO ../tb/apb_driver.sv(20) @ 845: uvm_test_top.env.agent.driver [apb_driver] Driving transaction : addr = 0xf830 | write = 0 | wdata = 0x0ca7d560eaf318ed6 
UVM_INFO ../tb/apb_monitor.sv(29) @ 905: uvm_test_top.env.agent.monitor [Monitor] addr : 0xf830 | write : 0 | wdata : 0x0 
UVM_INFO ../tb/apb_driver.sv(20) @ 905: uvm_test_top.env.agent.driver [apb_driver] Driving transaction : addr = 0xf834 | write = 0 | wdata = 0x0b608c5bc1de81b81 
UVM_INFO ../tb/apb_monitor.sv(29) @ 965: uvm_test_top.env.agent.monitor [Monitor] addr : 0xf834 | write : 0 | wdata : 0x0 
UVM_INFO ../tb/apb_driver.sv(20) @ 965: uvm_test_top.env.agent.driver [apb_driver] Driving transaction : addr = 0xf837 | write = 1 | wdata = 0x0daf017391da67aa6 
UVM_INFO ../tb/apb_monitor.sv(29) @ 1025: uvm_test_top.env.agent.monitor [Monitor] addr : 0xf837 | write : 1 | wdata : 0xdaf017391da67aa6 
UVM_INFO ../tb/apb_driver.sv(20) @ 1025: uvm_test_top.env.agent.driver [apb_driver] Driving transaction : addr = 0xf830 | write = 0 | wdata = 0x0ec77d39cd0b347cb 
UVM_INFO ../tb/apb_monitor.sv(29) @ 1085: uvm_test_top.env.agent.monitor [Monitor] addr : 0xf830 | write : 0 | wdata : 0x0 
UVM_INFO ../tb/apb_driver.sv(20) @ 1085: uvm_test_top.env.agent.driver [apb_driver] Driving transaction : addr = 0xf837 | write = 0 | wdata = 0x0dd3af6c162e36503 
UVM_INFO ../tb/apb_monitor.sv(29) @ 1145: uvm_test_top.env.agent.monitor [Monitor] addr : 0xf837 | write : 0 | wdata : 0x0 
UVM_INFO ../tb/apb_driver.sv(20) @ 1145: uvm_test_top.env.agent.driver [apb_driver] Driving transaction : addr = 0x1f833 | write = 1 | wdata = 0x0daf017391da67aa6 
UVM_INFO ../tb/apb_monitor.sv(29) @ 1205: uvm_test_top.env.agent.monitor [Monitor] addr : 0x1f833 | write : 1 | wdata : 0xdaf017391da67aa6 
UVM_INFO ../tb/apb_driver.sv(20) @ 1205: uvm_test_top.env.agent.driver [apb_driver] Driving transaction : addr = 0xf830 | write = 0 | wdata = 0x099568b6c42d4c5d6 
UVM_INFO ../tb/apb_monitor.sv(29) @ 1265: uvm_test_top.env.agent.monitor [Monitor] addr : 0xf830 | write : 0 | wdata : 0x0 
UVM_INFO ../tb/apb_driver.sv(20) @ 1265: uvm_test_top.env.agent.driver [apb_driver] Driving transaction : addr = 0x1f833 | write = 0 | wdata = 0x0c94e3db740a84b91 
UVM_INFO ../tb/apb_monitor.sv(29) @ 1325: uvm_test_top.env.agent.monitor [Monitor] addr : 0x1f833 | write : 0 | wdata : 0x0 
UVM_INFO ../tb/apb_driver.sv(20) @ 1325: uvm_test_top.env.agent.driver [apb_driver] Driving transaction : addr = 0xe540 | write = 1 | wdata = 0x0cbc5093c0257c298 
UVM_INFO ../tb/apb_monitor.sv(29) @ 1385: uvm_test_top.env.agent.monitor [Monitor] addr : 0xe540 | write : 1 | wdata : 0xcbc5093c0257c298 
UVM_INFO ../tb/apb_driver.sv(20) @ 1385: uvm_test_top.env.agent.driver [apb_driver] Driving transaction : addr = 0x1e540 | write = 1 | wdata = 0x0343af6c3fda83d67 
UVM_INFO ../tb/apb_monitor.sv(29) @ 1445: uvm_test_top.env.agent.monitor [Monitor] addr : 0x1e540 | write : 1 | wdata : 0x343af6c3fda83d67 
UVM_INFO ../tb/apb_driver.sv(20) @ 1445: uvm_test_top.env.agent.driver [apb_driver] Driving transaction : addr = 0xe540 | write = 0 | wdata = 0x0f12cbddd44154932 
UVM_INFO ../tb/apb_monitor.sv(29) @ 1505: uvm_test_top.env.agent.monitor [Monitor] addr : 0xe540 | write : 0 | wdata : 0x0 
UVM_INFO ../tb/apb_driver.sv(20) @ 1505: uvm_test_top.env.agent.driver [apb_driver] Driving transaction : addr = 0x1e540 | write = 0 | wdata = 0x04d4b31c84986f236 
UVM_INFO ../tb/apb_monitor.sv(29) @ 1565: uvm_test_top.env.agent.monitor [Monitor] addr : 0x1e540 | write : 0 | wdata : 0x0 
UVM_INFO ../tb/apb_driver.sv(20) @ 1565: uvm_test_top.env.agent.driver [apb_driver] Driving transaction : addr = 0x10e540 | write = 1 | wdata = 0x0343af6c3fda83d67 
UVM_INFO ../tb/apb_monitor.sv(29) @ 1625: uvm_test_top.env.agent.monitor [Monitor] addr : 0x10e540 | write : 1 | wdata : 0x343af6c3fda83d67 
UVM_INFO ../tb/apb_driver.sv(20) @ 1625: uvm_test_top.env.agent.driver [apb_driver] Driving transaction : addr = 0xe540 | write = 0 | wdata = 0x0591200af5d425a6 
UVM_INFO ../tb/apb_monitor.sv(29) @ 1685: uvm_test_top.env.agent.monitor [Monitor] addr : 0xe540 | write : 0 | wdata : 0x0 
UVM_INFO ../tb/apb_driver.sv(20) @ 1685: uvm_test_top.env.agent.driver [apb_driver] Driving transaction : addr = 0x10e540 | write = 0 | wdata = 0x0a001ec9df0ab979c 
UVM_INFO ../tb/apb_monitor.sv(29) @ 1745: uvm_test_top.env.agent.monitor [Monitor] addr : 0x10e540 | write : 0 | wdata : 0x0 
UVM_INFO ../tb/apb_driver.sv(20) @ 1745: uvm_test_top.env.agent.driver [apb_driver] Driving transaction : addr = 0x8000e540 | write = 1 | wdata = 0x0343af6c3fda83d67 
UVM_INFO ../tb/apb_monitor.sv(29) @ 1805: uvm_test_top.env.agent.monitor [Monitor] addr : 0x8000e540 | write : 1 | wdata : 0x343af6c3fda83d67 
UVM_INFO ../tb/apb_driver.sv(20) @ 1805: uvm_test_top.env.agent.driver [apb_driver] Driving transaction : addr = 0xe540 | write = 0 | wdata = 0x026d9ae29cad1ed14 
UVM_INFO ../tb/apb_monitor.sv(29) @ 1865: uvm_test_top.env.agent.monitor [Monitor] addr : 0xe540 | write : 0 | wdata : 0x0 
UVM_INFO ../tb/apb_driver.sv(20) @ 1865: uvm_test_top.env.agent.driver [apb_driver] Driving transaction : addr = 0x8000e540 | write = 0 | wdata = 0x0e154eba11a6240f9 
UVM_INFO ../tb/apb_monitor.sv(29) @ 1925: uvm_test_top.env.agent.monitor [Monitor] addr : 0x8000e540 | write : 0 | wdata : 0x0 
UVM_INFO ../tb/apb_driver.sv(20) @ 1925: uvm_test_top.env.agent.driver [apb_driver] Driving transaction : addr = 0xe541 | write = 1 | wdata = 0x0343af6c3fda83d67 
UVM_INFO ../tb/apb_monitor.sv(29) @ 1985: uvm_test_top.env.agent.monitor [Monitor] addr : 0xe541 | write : 1 | wdata : 0x343af6c3fda83d67 
UVM_INFO ../tb/apb_driver.sv(20) @ 1985: uvm_test_top.env.agent.driver [apb_driver] Driving transaction : addr = 0xe540 | write = 0 | wdata = 0x0893e305f067f4ca1 
UVM_INFO ../tb/apb_monitor.sv(29) @ 2045: uvm_test_top.env.agent.monitor [Monitor] addr : 0xe540 | write : 0 | wdata : 0x0 
UVM_INFO ../tb/apb_driver.sv(20) @ 2045: uvm_test_top.env.agent.driver [apb_driver] Driving transaction : addr = 0xe541 | write = 0 | wdata = 0x0d7a8a20c964bd2d3 
UVM_INFO ../tb/apb_monitor.sv(29) @ 2105: uvm_test_top.env.agent.monitor [Monitor] addr : 0xe541 | write : 0 | wdata : 0x0 
UVM_INFO ../tb/apb_driver.sv(20) @ 2105: uvm_test_top.env.agent.driver [apb_driver] Driving transaction : addr = 0xe544 | write = 1 | wdata = 0x0343af6c3fda83d67 
UVM_INFO ../tb/apb_monitor.sv(29) @ 2165: uvm_test_top.env.agent.monitor [Monitor] addr : 0xe544 | write : 1 | wdata : 0x343af6c3fda83d67 
UVM_INFO ../tb/apb_driver.sv(20) @ 2165: uvm_test_top.env.agent.driver [apb_driver] Driving transaction : addr = 0xe540 | write = 0 | wdata = 0x01c2fbd29b6a2aa00 
UVM_INFO ../tb/apb_monitor.sv(29) @ 2225: uvm_test_top.env.agent.monitor [Monitor] addr : 0xe540 | write : 0 | wdata : 0x0 
UVM_INFO ../tb/apb_driver.sv(20) @ 2225: uvm_test_top.env.agent.driver [apb_driver] Driving transaction : addr = 0xe544 | write = 0 | wdata = 0x095f79b6c14f83a86 
UVM_INFO ../tb/apb_monitor.sv(29) @ 2285: uvm_test_top.env.agent.monitor [Monitor] addr : 0xe544 | write : 0 | wdata : 0x0 
UVM_INFO ../tb/apb_driver.sv(20) @ 2285: uvm_test_top.env.agent.driver [apb_driver] Driving transaction : addr = 0xe547 | write = 1 | wdata = 0x0343af6c3fda83d67 
UVM_INFO ../tb/apb_monitor.sv(29) @ 2345: uvm_test_top.env.agent.monitor [Monitor] addr : 0xe547 | write : 1 | wdata : 0x343af6c3fda83d67 
UVM_INFO ../tb/apb_driver.sv(20) @ 2345: uvm_test_top.env.agent.driver [apb_driver] Driving transaction : addr = 0xe540 | write = 0 | wdata = 0x01dfa34084fa86425 
UVM_INFO ../tb/apb_monitor.sv(29) @ 2405: uvm_test_top.env.agent.monitor [Monitor] addr : 0xe540 | write : 0 | wdata : 0x0 
UVM_INFO ../tb/apb_driver.sv(20) @ 2405: uvm_test_top.env.agent.driver [apb_driver] Driving transaction : addr = 0xe547 | write = 0 | wdata = 0x0b1baa5ab92625e95 
UVM_INFO ../tb/apb_monitor.sv(29) @ 2465: uvm_test_top.env.agent.monitor [Monitor] addr : 0xe547 | write : 0 | wdata : 0x0 
UVM_INFO ../tb/apb_driver.sv(20) @ 2465: uvm_test_top.env.agent.driver [apb_driver] Driving transaction : addr = 0x1e543 | write = 1 | wdata = 0x0343af6c3fda83d67 
UVM_INFO ../tb/apb_monitor.sv(29) @ 2525: uvm_test_top.env.agent.monitor [Monitor] addr : 0x1e543 | write : 1 | wdata : 0x343af6c3fda83d67 
UVM_INFO ../tb/apb_driver.sv(20) @ 2525: uvm_test_top.env.agent.driver [apb_driver] Driving transaction : addr = 0xe540 | write = 0 | wdata = 0x06b3e6b1c85a7fafe 
UVM_INFO ../tb/apb_monitor.sv(29) @ 2585: uvm_test_top.env.agent.monitor [Monitor] addr : 0xe540 | write : 0 | wdata : 0x0 
UVM_INFO ../tb/apb_driver.sv(20) @ 2585: uvm_test_top.env.agent.driver [apb_driver] Driving transaction : addr = 0x1e543 | write = 0 | wdata = 0x0a09994f436d72d 
UVM_INFO ../tb/apb_monitor.sv(29) @ 2645: uvm_test_top.env.agent.monitor [Monitor] addr : 0x1e543 | write : 0 | wdata : 0x0 
UVM_INFO ../tb/apb_driver.sv(20) @ 2645: uvm_test_top.env.agent.driver [apb_driver] Driving transaction : addr = 0x4c88 | write = 1 | wdata = 0x049da8b2df49b0f03 
UVM_INFO ../tb/apb_monitor.sv(29) @ 2705: uvm_test_top.env.agent.monitor [Monitor] addr : 0x4c88 | write : 1 | wdata : 0x49da8b2df49b0f03 
UVM_INFO ../tb/apb_driver.sv(20) @ 2705: uvm_test_top.env.agent.driver [apb_driver] Driving transaction : addr = 0x14c88 | write = 1 | wdata = 0x0b62574d20b64f0fc 
UVM_INFO ../tb/apb_monitor.sv(29) @ 2765: uvm_test_top.env.agent.monitor [Monitor] addr : 0x14c88 | write : 1 | wdata : 0xb62574d20b64f0fc 
UVM_INFO ../tb/apb_driver.sv(20) @ 2765: uvm_test_top.env.agent.driver [apb_driver] Driving transaction : addr = 0x4c88 | write = 0 | wdata = 0x0e700d1b997e924a0 
UVM_INFO ../tb/apb_monitor.sv(29) @ 2825: uvm_test_top.env.agent.monitor [Monitor] addr : 0x4c88 | write : 0 | wdata : 0x0 
UVM_INFO ../tb/apb_driver.sv(20) @ 2825: uvm_test_top.env.agent.driver [apb_driver] Driving transaction : addr = 0x14c88 | write = 0 | wdata = 0x0205d06ceffbfb474 
UVM_INFO ../tb/apb_monitor.sv(29) @ 2885: uvm_test_top.env.agent.monitor [Monitor] addr : 0x14c88 | write : 0 | wdata : 0x0 
UVM_INFO ../tb/apb_driver.sv(20) @ 2885: uvm_test_top.env.agent.driver [apb_driver] Driving transaction : addr = 0x104c88 | write = 1 | wdata = 0x0b62574d20b64f0fc 
UVM_INFO ../tb/apb_monitor.sv(29) @ 2945: uvm_test_top.env.agent.monitor [Monitor] addr : 0x104c88 | write : 1 | wdata : 0xb62574d20b64f0fc 
UVM_INFO ../tb/apb_driver.sv(20) @ 2945: uvm_test_top.env.agent.driver [apb_driver] Driving transaction : addr = 0x4c88 | write = 0 | wdata = 0x0d9d99b17fd523965 
UVM_INFO ../tb/apb_monitor.sv(29) @ 3005: uvm_test_top.env.agent.monitor [Monitor] addr : 0x4c88 | write : 0 | wdata : 0x0 
UVM_INFO ../tb/apb_driver.sv(20) @ 3005: uvm_test_top.env.agent.driver [apb_driver] Driving transaction : addr = 0x104c88 | write = 0 | wdata = 0x06cae8c267106961a 
UVM_INFO ../tb/apb_monitor.sv(29) @ 3065: uvm_test_top.env.agent.monitor [Monitor] addr : 0x104c88 | write : 0 | wdata : 0x0 
UVM_INFO ../tb/apb_driver.sv(20) @ 3065: uvm_test_top.env.agent.driver [apb_driver] Driving transaction : addr = 0x80004c88 | write = 1 | wdata = 0x0b62574d20b64f0fc 
UVM_INFO ../tb/apb_monitor.sv(29) @ 3125: uvm_test_top.env.agent.monitor [Monitor] addr : 0x80004c88 | write : 1 | wdata : 0xb62574d20b64f0fc 
UVM_INFO ../tb/apb_driver.sv(20) @ 3125: uvm_test_top.env.agent.driver [apb_driver] Driving transaction : addr = 0x4c88 | write = 0 | wdata = 0x09889575cbcfb09b8 
UVM_INFO ../tb/apb_monitor.sv(29) @ 3185: uvm_test_top.env.agent.monitor [Monitor] addr : 0x4c88 | write : 0 | wdata : 0x0 
UVM_INFO ../tb/apb_driver.sv(20) @ 3185: uvm_test_top.env.agent.driver [apb_driver] Driving transaction : addr = 0x80004c88 | write = 0 | wdata = 0x052a2474ed4915017 
UVM_INFO ../tb/apb_monitor.sv(29) @ 3245: uvm_test_top.env.agent.monitor [Monitor] addr : 0x80004c88 | write : 0 | wdata : 0x0 
UVM_INFO ../tb/apb_driver.sv(20) @ 3245: uvm_test_top.env.agent.driver [apb_driver] Driving transaction : addr = 0x4c89 | write = 1 | wdata = 0x0b62574d20b64f0fc 
UVM_INFO ../tb/apb_monitor.sv(29) @ 3305: uvm_test_top.env.agent.monitor [Monitor] addr : 0x4c89 | write : 1 | wdata : 0xb62574d20b64f0fc 
UVM_INFO ../tb/apb_driver.sv(20) @ 3305: uvm_test_top.env.agent.driver [apb_driver] Driving transaction : addr = 0x4c88 | write = 0 | wdata = 0x0114ee3ce2830b76 
UVM_INFO ../tb/apb_monitor.sv(29) @ 3365: uvm_test_top.env.agent.monitor [Monitor] addr : 0x4c88 | write : 0 | wdata : 0x0 
UVM_INFO ../tb/apb_driver.sv(20) @ 3365: uvm_test_top.env.agent.driver [apb_driver] Driving transaction : addr = 0x4c89 | write = 0 | wdata = 0x0869e46c8aea83f67 
UVM_INFO ../tb/apb_monitor.sv(29) @ 3425: uvm_test_top.env.agent.monitor [Monitor] addr : 0x4c89 | write : 0 | wdata : 0x0 
UVM_INFO ../tb/apb_driver.sv(20) @ 3425: uvm_test_top.env.agent.driver [apb_driver] Driving transaction : addr = 0x4c8c | write = 1 | wdata = 0x0b62574d20b64f0fc 
UVM_INFO ../tb/apb_monitor.sv(29) @ 3485: uvm_test_top.env.agent.monitor [Monitor] addr : 0x4c8c | write : 1 | wdata : 0xb62574d20b64f0fc 
UVM_INFO ../tb/apb_driver.sv(20) @ 3485: uvm_test_top.env.agent.driver [apb_driver] Driving transaction : addr = 0x4c88 | write = 0 | wdata = 0x0d6ce4bac23eecf10 
UVM_INFO ../tb/apb_monitor.sv(29) @ 3545: uvm_test_top.env.agent.monitor [Monitor] addr : 0x4c88 | write : 0 | wdata : 0x0 
UVM_INFO ../tb/apb_driver.sv(20) @ 3545: uvm_test_top.env.agent.driver [apb_driver] Driving transaction : addr = 0x4c8c | write = 0 | wdata = 0x09d048c808e7717b5 
UVM_INFO ../tb/apb_monitor.sv(29) @ 3605: uvm_test_top.env.agent.monitor [Monitor] addr : 0x4c8c | write : 0 | wdata : 0x0 
UVM_INFO ../tb/apb_driver.sv(20) @ 3605: uvm_test_top.env.agent.driver [apb_driver] Driving transaction : addr = 0x4c8f | write = 1 | wdata = 0x0b62574d20b64f0fc 
UVM_INFO ../tb/apb_monitor.sv(29) @ 3665: uvm_test_top.env.agent.monitor [Monitor] addr : 0x4c8f | write : 1 | wdata : 0xb62574d20b64f0fc 
UVM_INFO ../tb/apb_driver.sv(20) @ 3665: uvm_test_top.env.agent.driver [apb_driver] Driving transaction : addr = 0x4c88 | write = 0 | wdata = 0x03c6a74f40d610461 
UVM_INFO ../tb/apb_monitor.sv(29) @ 3725: uvm_test_top.env.agent.monitor [Monitor] addr : 0x4c88 | write : 0 | wdata : 0x0 
UVM_INFO ../tb/apb_driver.sv(20) @ 3725: uvm_test_top.env.agent.driver [apb_driver] Driving transaction : addr = 0x4c8f | write = 0 | wdata = 0x0c6e664dfc260d7b5 
UVM_INFO ../tb/apb_monitor.sv(29) @ 3785: uvm_test_top.env.agent.monitor [Monitor] addr : 0x4c8f | write : 0 | wdata : 0x0 
UVM_INFO ../tb/apb_driver.sv(20) @ 3785: uvm_test_top.env.agent.driver [apb_driver] Driving transaction : addr = 0x14c8b | write = 1 | wdata = 0x0b62574d20b64f0fc 
UVM_INFO ../tb/apb_monitor.sv(29) @ 3845: uvm_test_top.env.agent.monitor [Monitor] addr : 0x14c8b | write : 1 | wdata : 0xb62574d20b64f0fc 
UVM_INFO ../tb/apb_driver.sv(20) @ 3845: uvm_test_top.env.agent.driver [apb_driver] Driving transaction : addr = 0x4c88 | write = 0 | wdata = 0x02f934109fccb6673 
UVM_INFO ../tb/apb_monitor.sv(29) @ 3905: uvm_test_top.env.agent.monitor [Monitor] addr : 0x4c88 | write : 0 | wdata : 0x0 
UVM_INFO ../tb/apb_driver.sv(20) @ 3905: uvm_test_top.env.agent.driver [apb_driver] Driving transaction : addr = 0x14c8b | write = 0 | wdata = 0x07d1cf06b79ce77a6 
UVM_INFO ../tb/apb_monitor.sv(29) @ 3965: uvm_test_top.env.agent.monitor [Monitor] addr : 0x14c8b | write : 0 | wdata : 0x0 
UVM_INFO ../tb/apb_driver.sv(20) @ 3965: uvm_test_top.env.agent.driver [apb_driver] Driving transaction : addr = 0x5ee8 | write = 1 | wdata = 0x079284a7ec28a27e6 
UVM_INFO ../tb/apb_monitor.sv(29) @ 4025: uvm_test_top.env.agent.monitor [Monitor] addr : 0x5ee8 | write : 1 | wdata : 0x79284a7ec28a27e6 
UVM_INFO ../tb/apb_driver.sv(20) @ 4025: uvm_test_top.env.agent.driver [apb_driver] Driving transaction : addr = 0x15ee8 | write = 1 | wdata = 0x086d7b5813d75d819 
UVM_INFO ../tb/apb_monitor.sv(29) @ 4085: uvm_test_top.env.agent.monitor [Monitor] addr : 0x15ee8 | write : 1 | wdata : 0x86d7b5813d75d819 
UVM_INFO ../tb/apb_driver.sv(20) @ 4085: uvm_test_top.env.agent.driver [apb_driver] Driving transaction : addr = 0x5ee8 | write = 0 | wdata = 0x0b9938dd65e30f8c7 
UVM_INFO ../tb/apb_monitor.sv(29) @ 4145: uvm_test_top.env.agent.monitor [Monitor] addr : 0x5ee8 | write : 0 | wdata : 0x0 
UVM_INFO ../tb/apb_driver.sv(20) @ 4145: uvm_test_top.env.agent.driver [apb_driver] Driving transaction : addr = 0x15ee8 | write = 0 | wdata = 0x08df37964f9eb322f 
UVM_INFO ../tb/apb_monitor.sv(29) @ 4205: uvm_test_top.env.agent.monitor [Monitor] addr : 0x15ee8 | write : 0 | wdata : 0x0 
UVM_INFO ../tb/apb_driver.sv(20) @ 4205: uvm_test_top.env.agent.driver [apb_driver] Driving transaction : addr = 0x105ee8 | write = 1 | wdata = 0x086d7b5813d75d819 
UVM_INFO ../tb/apb_monitor.sv(29) @ 4265: uvm_test_top.env.agent.monitor [Monitor] addr : 0x105ee8 | write : 1 | wdata : 0x86d7b5813d75d819 
UVM_INFO ../tb/apb_driver.sv(20) @ 4265: uvm_test_top.env.agent.driver [apb_driver] Driving transaction : addr = 0x5ee8 | write = 0 | wdata = 0x03e049ca9e920b202 
UVM_INFO ../tb/apb_monitor.sv(29) @ 4325: uvm_test_top.env.agent.monitor [Monitor] addr : 0x5ee8 | write : 0 | wdata : 0x0 
UVM_INFO ../tb/apb_driver.sv(20) @ 4325: uvm_test_top.env.agent.driver [apb_driver] Driving transaction : addr = 0x105ee8 | write = 0 | wdata = 0x041a7bcefa98f4575 
UVM_INFO ../tb/apb_monitor.sv(29) @ 4385: uvm_test_top.env.agent.monitor [Monitor] addr : 0x105ee8 | write : 0 | wdata : 0x0 
UVM_INFO ../tb/apb_driver.sv(20) @ 4385: uvm_test_top.env.agent.driver [apb_driver] Driving transaction : addr = 0x80005ee8 | write = 1 | wdata = 0x086d7b5813d75d819 
UVM_INFO ../tb/apb_monitor.sv(29) @ 4445: uvm_test_top.env.agent.monitor [Monitor] addr : 0x80005ee8 | write : 1 | wdata : 0x86d7b5813d75d819 
UVM_INFO ../tb/apb_driver.sv(20) @ 4445: uvm_test_top.env.agent.driver [apb_driver] Driving transaction : addr = 0x5ee8 | write = 0 | wdata = 0x02dd19801d6c145b5 
UVM_INFO ../tb/apb_monitor.sv(29) @ 4505: uvm_test_top.env.agent.monitor [Monitor] addr : 0x5ee8 | write : 0 | wdata : 0x0 
UVM_INFO ../tb/apb_driver.sv(20) @ 4505: uvm_test_top.env.agent.driver [apb_driver] Driving transaction : addr = 0x80005ee8 | write = 0 | wdata = 0x080b4ec29a8d7d9e1 
UVM_INFO ../tb/apb_monitor.sv(29) @ 4565: uvm_test_top.env.agent.monitor [Monitor] addr : 0x80005ee8 | write : 0 | wdata : 0x0 
UVM_INFO ../tb/apb_driver.sv(20) @ 4565: uvm_test_top.env.agent.driver [apb_driver] Driving transaction : addr = 0x5ee9 | write = 1 | wdata = 0x086d7b5813d75d819 
UVM_INFO ../tb/apb_monitor.sv(29) @ 4625: uvm_test_top.env.agent.monitor [Monitor] addr : 0x5ee9 | write : 1 | wdata : 0x86d7b5813d75d819 
UVM_INFO ../tb/apb_driver.sv(20) @ 4625: uvm_test_top.env.agent.driver [apb_driver] Driving transaction : addr = 0x5ee8 | write = 0 | wdata = 0x03e4be6c2ba44f7b7 
UVM_INFO ../tb/apb_monitor.sv(29) @ 4685: uvm_test_top.env.agent.monitor [Monitor] addr : 0x5ee8 | write : 0 | wdata : 0x0 
UVM_INFO ../tb/apb_driver.sv(20) @ 4685: uvm_test_top.env.agent.driver [apb_driver] Driving transaction : addr = 0x5ee9 | write = 0 | wdata = 0x0b887375a8ccb8a67 
UVM_INFO ../tb/apb_monitor.sv(29) @ 4745: uvm_test_top.env.agent.monitor [Monitor] addr : 0x5ee9 | write : 0 | wdata : 0x0 
UVM_INFO ../tb/apb_driver.sv(20) @ 4745: uvm_test_top.env.agent.driver [apb_driver] Driving transaction : addr = 0x5eec | write = 1 | wdata = 0x086d7b5813d75d819 
UVM_INFO ../tb/apb_monitor.sv(29) @ 4805: uvm_test_top.env.agent.monitor [Monitor] addr : 0x5eec | write : 1 | wdata : 0x86d7b5813d75d819 
UVM_INFO ../tb/apb_driver.sv(20) @ 4805: uvm_test_top.env.agent.driver [apb_driver] Driving transaction : addr = 0x5ee8 | write = 0 | wdata = 0x0e87956a725e0e90f 
UVM_INFO ../tb/apb_monitor.sv(29) @ 4865: uvm_test_top.env.agent.monitor [Monitor] addr : 0x5ee8 | write : 0 | wdata : 0x0 
UVM_INFO ../tb/apb_driver.sv(20) @ 4865: uvm_test_top.env.agent.driver [apb_driver] Driving transaction : addr = 0x5eec | write = 0 | wdata = 0x0cffae37c42594c74 
UVM_INFO ../tb/apb_monitor.sv(29) @ 4925: uvm_test_top.env.agent.monitor [Monitor] addr : 0x5eec | write : 0 | wdata : 0x0 
UVM_INFO ../tb/apb_driver.sv(20) @ 4925: uvm_test_top.env.agent.driver [apb_driver] Driving transaction : addr = 0x5eef | write = 1 | wdata = 0x086d7b5813d75d819 
UVM_INFO ../tb/apb_monitor.sv(29) @ 4985: uvm_test_top.env.agent.monitor [Monitor] addr : 0x5eef | write : 1 | wdata : 0x86d7b5813d75d819 
UVM_INFO ../tb/apb_driver.sv(20) @ 4985: uvm_test_top.env.agent.driver [apb_driver] Driving transaction : addr = 0x5ee8 | write = 0 | wdata = 0x086bc8429a4ecbb68 
UVM_INFO ../tb/apb_monitor.sv(29) @ 5045: uvm_test_top.env.agent.monitor [Monitor] addr : 0x5ee8 | write : 0 | wdata : 0x0 
UVM_INFO ../tb/apb_driver.sv(20) @ 5045: uvm_test_top.env.agent.driver [apb_driver] Driving transaction : addr = 0x5eef | write = 0 | wdata = 0x0b1e9eb9ac10db50 
UVM_INFO ../tb/apb_monitor.sv(29) @ 5105: uvm_test_top.env.agent.monitor [Monitor] addr : 0x5eef | write : 0 | wdata : 0x0 
UVM_INFO ../tb/apb_driver.sv(20) @ 5105: uvm_test_top.env.agent.driver [apb_driver] Driving transaction : addr = 0x15eeb | write = 1 | wdata = 0x086d7b5813d75d819 
UVM_INFO ../tb/apb_monitor.sv(29) @ 5165: uvm_test_top.env.agent.monitor [Monitor] addr : 0x15eeb | write : 1 | wdata : 0x86d7b5813d75d819 
UVM_INFO ../tb/apb_driver.sv(20) @ 5165: uvm_test_top.env.agent.driver [apb_driver] Driving transaction : addr = 0x5ee8 | write = 0 | wdata = 0x0a5466dee9bf453c4 
UVM_INFO ../tb/apb_monitor.sv(29) @ 5225: uvm_test_top.env.agent.monitor [Monitor] addr : 0x5ee8 | write : 0 | wdata : 0x0 
UVM_INFO ../tb/apb_driver.sv(20) @ 5225: uvm_test_top.env.agent.driver [apb_driver] Driving transaction : addr = 0x15eeb | write = 0 | wdata = 0x02e20f1877a15a7cc 
UVM_INFO ../tb/apb_monitor.sv(29) @ 5285: uvm_test_top.env.agent.monitor [Monitor] addr : 0x15eeb | write : 0 | wdata : 0x0 
UVM_INFO ../tb/apb_driver.sv(20) @ 5285: uvm_test_top.env.agent.driver [apb_driver] Driving transaction : addr = 0x4d58 | write = 1 | wdata = 0x09e9a383d4b8cf98f 
UVM_INFO ../tb/apb_monitor.sv(29) @ 5345: uvm_test_top.env.agent.monitor [Monitor] addr : 0x4d58 | write : 1 | wdata : 0x9e9a383d4b8cf98f 
UVM_INFO ../tb/apb_driver.sv(20) @ 5345: uvm_test_top.env.agent.driver [apb_driver] Driving transaction : addr = 0x14d58 | write = 1 | wdata = 0x06165c7c2b4730670 
UVM_INFO ../tb/apb_monitor.sv(29) @ 5405: uvm_test_top.env.agent.monitor [Monitor] addr : 0x14d58 | write : 1 | wdata : 0x6165c7c2b4730670 
UVM_INFO ../tb/apb_driver.sv(20) @ 5405: uvm_test_top.env.agent.driver [apb_driver] Driving transaction : addr = 0x4d58 | write = 0 | wdata = 0x089a93a0ec4adfd23 
UVM_INFO ../tb/apb_monitor.sv(29) @ 5465: uvm_test_top.env.agent.monitor [Monitor] addr : 0x4d58 | write : 0 | wdata : 0x0 
UVM_INFO ../tb/apb_driver.sv(20) @ 5465: uvm_test_top.env.agent.driver [apb_driver] Driving transaction : addr = 0x14d58 | write = 0 | wdata = 0x04178261c45980039 
UVM_INFO ../tb/apb_monitor.sv(29) @ 5525: uvm_test_top.env.agent.monitor [Monitor] addr : 0x14d58 | write : 0 | wdata : 0x0 
UVM_INFO ../tb/apb_driver.sv(20) @ 5525: uvm_test_top.env.agent.driver [apb_driver] Driving transaction : addr = 0x104d58 | write = 1 | wdata = 0x06165c7c2b4730670 
UVM_INFO ../tb/apb_monitor.sv(29) @ 5585: uvm_test_top.env.agent.monitor [Monitor] addr : 0x104d58 | write : 1 | wdata : 0x6165c7c2b4730670 
UVM_INFO ../tb/apb_driver.sv(20) @ 5585: uvm_test_top.env.agent.driver [apb_driver] Driving transaction : addr = 0x4d58 | write = 0 | wdata = 0x0844096089e67fa69 
UVM_INFO ../tb/apb_monitor.sv(29) @ 5645: uvm_test_top.env.agent.monitor [Monitor] addr : 0x4d58 | write : 0 | wdata : 0x0 
UVM_INFO ../tb/apb_driver.sv(20) @ 5645: uvm_test_top.env.agent.driver [apb_driver] Driving transaction : addr = 0x104d58 | write = 0 | wdata = 0x0309270cd443a2d40 
UVM_INFO ../tb/apb_monitor.sv(29) @ 5705: uvm_test_top.env.agent.monitor [Monitor] addr : 0x104d58 | write : 0 | wdata : 0x0 
UVM_INFO ../tb/apb_driver.sv(20) @ 5705: uvm_test_top.env.agent.driver [apb_driver] Driving transaction : addr = 0x80004d58 | write = 1 | wdata = 0x06165c7c2b4730670 
UVM_INFO ../tb/apb_monitor.sv(29) @ 5765: uvm_test_top.env.agent.monitor [Monitor] addr : 0x80004d58 | write : 1 | wdata : 0x6165c7c2b4730670 
UVM_INFO ../tb/apb_driver.sv(20) @ 5765: uvm_test_top.env.agent.driver [apb_driver] Driving transaction : addr = 0x4d58 | write = 0 | wdata = 0x0780e90f350d9e692 
UVM_INFO ../tb/apb_monitor.sv(29) @ 5825: uvm_test_top.env.agent.monitor [Monitor] addr : 0x4d58 | write : 0 | wdata : 0x0 
UVM_INFO ../tb/apb_driver.sv(20) @ 5825: uvm_test_top.env.agent.driver [apb_driver] Driving transaction : addr = 0x80004d58 | write = 0 | wdata = 0x0b6f778a569b3885b 
UVM_INFO ../tb/apb_monitor.sv(29) @ 5885: uvm_test_top.env.agent.monitor [Monitor] addr : 0x80004d58 | write : 0 | wdata : 0x0 
UVM_INFO ../tb/apb_driver.sv(20) @ 5885: uvm_test_top.env.agent.driver [apb_driver] Driving transaction : addr = 0x4d59 | write = 1 | wdata = 0x06165c7c2b4730670 
UVM_INFO ../tb/apb_monitor.sv(29) @ 5945: uvm_test_top.env.agent.monitor [Monitor] addr : 0x4d59 | write : 1 | wdata : 0x6165c7c2b4730670 
UVM_INFO ../tb/apb_driver.sv(20) @ 5945: uvm_test_top.env.agent.driver [apb_driver] Driving transaction : addr = 0x4d58 | write = 0 | wdata = 0x0d0c5fb38a4e0e252 
UVM_INFO ../tb/apb_monitor.sv(29) @ 6005: uvm_test_top.env.agent.monitor [Monitor] addr : 0x4d58 | write : 0 | wdata : 0x0 
UVM_INFO ../tb/apb_driver.sv(20) @ 6005: uvm_test_top.env.agent.driver [apb_driver] Driving transaction : addr = 0x4d59 | write = 0 | wdata = 0x060dea40f9d7d1e0f 
UVM_INFO ../tb/apb_monitor.sv(29) @ 6065: uvm_test_top.env.agent.monitor [Monitor] addr : 0x4d59 | write : 0 | wdata : 0x0 
UVM_INFO ../tb/apb_driver.sv(20) @ 6065: uvm_test_top.env.agent.driver [apb_driver] Driving transaction : addr = 0x4d5c | write = 1 | wdata = 0x06165c7c2b4730670 
UVM_INFO ../tb/apb_monitor.sv(29) @ 6125: uvm_test_top.env.agent.monitor [Monitor] addr : 0x4d5c | write : 1 | wdata : 0x6165c7c2b4730670 
UVM_INFO ../tb/apb_driver.sv(20) @ 6125: uvm_test_top.env.agent.driver [apb_driver] Driving transaction : addr = 0x4d58 | write = 0 | wdata = 0x01cb0a7a814ed61c6 
UVM_INFO ../tb/apb_monitor.sv(29) @ 6185: uvm_test_top.env.agent.monitor [Monitor] addr : 0x4d58 | write : 0 | wdata : 0x0 
UVM_INFO ../tb/apb_driver.sv(20) @ 6185: uvm_test_top.env.agent.driver [apb_driver] Driving transaction : addr = 0x4d5c | write = 0 | wdata = 0x0c7dd65b1e440672 
UVM_INFO ../tb/apb_monitor.sv(29) @ 6245: uvm_test_top.env.agent.monitor [Monitor] addr : 0x4d5c | write : 0 | wdata : 0x0 
UVM_INFO ../tb/apb_driver.sv(20) @ 6245: uvm_test_top.env.agent.driver [apb_driver] Driving transaction : addr = 0x4d5f | write = 1 | wdata = 0x06165c7c2b4730670 
UVM_INFO ../tb/apb_monitor.sv(29) @ 6305: uvm_test_top.env.agent.monitor [Monitor] addr : 0x4d5f | write : 1 | wdata : 0x6165c7c2b4730670 
UVM_INFO ../tb/apb_driver.sv(20) @ 6305: uvm_test_top.env.agent.driver [apb_driver] Driving transaction : addr = 0x4d58 | write = 0 | wdata = 0x084f80c6a8a6b0af8 
UVM_INFO ../tb/apb_monitor.sv(29) @ 6365: uvm_test_top.env.agent.monitor [Monitor] addr : 0x4d58 | write : 0 | wdata : 0x0 
UVM_INFO ../tb/apb_driver.sv(20) @ 6365: uvm_test_top.env.agent.driver [apb_driver] Driving transaction : addr = 0x4d5f | write = 0 | wdata = 0x03b04a3662d846796 
UVM_INFO ../tb/apb_monitor.sv(29) @ 6425: uvm_test_top.env.agent.monitor [Monitor] addr : 0x4d5f | write : 0 | wdata : 0x0 
UVM_INFO ../tb/apb_driver.sv(20) @ 6425: uvm_test_top.env.agent.driver [apb_driver] Driving transaction : addr = 0x14d5b | write = 1 | wdata = 0x06165c7c2b4730670 
UVM_INFO ../tb/apb_monitor.sv(29) @ 6485: uvm_test_top.env.agent.monitor [Monitor] addr : 0x14d5b | write : 1 | wdata : 0x6165c7c2b4730670 
UVM_INFO ../tb/apb_driver.sv(20) @ 6485: uvm_test_top.env.agent.driver [apb_driver] Driving transaction : addr = 0x4d58 | write = 0 | wdata = 0x0d7d8a8e3d6ef3ab7 
UVM_INFO ../tb/apb_monitor.sv(29) @ 6545: uvm_test_top.env.agent.monitor [Monitor] addr : 0x4d58 | write : 0 | wdata : 0x0 
UVM_INFO ../tb/apb_driver.sv(20) @ 6545: uvm_test_top.env.agent.driver [apb_driver] Driving transaction : addr = 0x14d5b | write = 0 | wdata = 0x027930d40b0cf60e2 
UVM_INFO ../tb/apb_monitor.sv(29) @ 6605: uvm_test_top.env.agent.monitor [Monitor] addr : 0x14d5b | write : 0 | wdata : 0x0 
UVM_INFO ../tb/apb_driver.sv(20) @ 6605: uvm_test_top.env.agent.driver [apb_driver] Driving transaction : addr = 0x22f0 | write = 1 | wdata = 0x01a220aa58225a6a7 
UVM_INFO ../tb/apb_monitor.sv(29) @ 6665: uvm_test_top.env.agent.monitor [Monitor] addr : 0x22f0 | write : 1 | wdata : 0x1a220aa58225a6a7 
UVM_INFO ../tb/apb_driver.sv(20) @ 6665: uvm_test_top.env.agent.driver [apb_driver] Driving transaction : addr = 0x122f0 | write = 1 | wdata = 0x0e5ddf55a7dda5958 
UVM_INFO ../tb/apb_monitor.sv(29) @ 6725: uvm_test_top.env.agent.monitor [Monitor] addr : 0x122f0 | write : 1 | wdata : 0xe5ddf55a7dda5958 
UVM_INFO ../tb/apb_driver.sv(20) @ 6725: uvm_test_top.env.agent.driver [apb_driver] Driving transaction : addr = 0x22f0 | write = 0 | wdata = 0x0d5f3dc6751a338ed 
UVM_INFO ../tb/apb_monitor.sv(29) @ 6785: uvm_test_top.env.agent.monitor [Monitor] addr : 0x22f0 | write : 0 | wdata : 0x0 
UVM_INFO ../tb/apb_driver.sv(20) @ 6785: uvm_test_top.env.agent.driver [apb_driver] Driving transaction : addr = 0x122f0 | write = 0 | wdata = 0x06bad71efb28609e7 
UVM_INFO ../tb/apb_monitor.sv(29) @ 6845: uvm_test_top.env.agent.monitor [Monitor] addr : 0x122f0 | write : 0 | wdata : 0x0 
UVM_INFO ../tb/apb_driver.sv(20) @ 6845: uvm_test_top.env.agent.driver [apb_driver] Driving transaction : addr = 0x1022f0 | write = 1 | wdata = 0x0e5ddf55a7dda5958 
UVM_INFO ../tb/apb_monitor.sv(29) @ 6905: uvm_test_top.env.agent.monitor [Monitor] addr : 0x1022f0 | write : 1 | wdata : 0xe5ddf55a7dda5958 
UVM_INFO ../tb/apb_driver.sv(20) @ 6905: uvm_test_top.env.agent.driver [apb_driver] Driving transaction : addr = 0x22f0 | write = 0 | wdata = 0x0e52f5f5dc1c63738 
UVM_INFO ../tb/apb_monitor.sv(29) @ 6965: uvm_test_top.env.agent.monitor [Monitor] addr : 0x22f0 | write : 0 | wdata : 0x0 
UVM_INFO ../tb/apb_driver.sv(20) @ 6965: uvm_test_top.env.agent.driver [apb_driver] Driving transaction : addr = 0x1022f0 | write = 0 | wdata = 0x0679b61f981bfce80 
UVM_INFO ../tb/apb_monitor.sv(29) @ 7025: uvm_test_top.env.agent.monitor [Monitor] addr : 0x1022f0 | write : 0 | wdata : 0x0 
UVM_INFO ../tb/apb_driver.sv(20) @ 7025: uvm_test_top.env.agent.driver [apb_driver] Driving transaction : addr = 0x800022f0 | write = 1 | wdata = 0x0e5ddf55a7dda5958 
UVM_INFO ../tb/apb_monitor.sv(29) @ 7085: uvm_test_top.env.agent.monitor [Monitor] addr : 0x800022f0 | write : 1 | wdata : 0xe5ddf55a7dda5958 
UVM_INFO ../tb/apb_driver.sv(20) @ 7085: uvm_test_top.env.agent.driver [apb_driver] Driving transaction : addr = 0x22f0 | write = 0 | wdata = 0x0c64273a4a65389bf 
UVM_INFO ../tb/apb_monitor.sv(29) @ 7145: uvm_test_top.env.agent.monitor [Monitor] addr : 0x22f0 | write : 0 | wdata : 0x0 
UVM_INFO ../tb/apb_driver.sv(20) @ 7145: uvm_test_top.env.agent.driver [apb_driver] Driving transaction : addr = 0x800022f0 | write = 0 | wdata = 0x0a65d62292cea3fa 
UVM_INFO ../tb/apb_monitor.sv(29) @ 7205: uvm_test_top.env.agent.monitor [Monitor] addr : 0x800022f0 | write : 0 | wdata : 0x0 
UVM_INFO ../tb/apb_driver.sv(20) @ 7205: uvm_test_top.env.agent.driver [apb_driver] Driving transaction : addr = 0x22f1 | write = 1 | wdata = 0x0e5ddf55a7dda5958 
UVM_INFO ../tb/apb_monitor.sv(29) @ 7265: uvm_test_top.env.agent.monitor [Monitor] addr : 0x22f1 | write : 1 | wdata : 0xe5ddf55a7dda5958 
UVM_INFO ../tb/apb_driver.sv(20) @ 7265: uvm_test_top.env.agent.driver [apb_driver] Driving transaction : addr = 0x22f0 | write = 0 | wdata = 0x0df5e23bb145b403b 
UVM_INFO ../tb/apb_monitor.sv(29) @ 7325: uvm_test_top.env.agent.monitor [Monitor] addr : 0x22f0 | write : 0 | wdata : 0x0 
UVM_INFO ../tb/apb_driver.sv(20) @ 7325: uvm_test_top.env.agent.driver [apb_driver] Driving transaction : addr = 0x22f1 | write = 0 | wdata = 0x0e027211e81acc16c 
UVM_INFO ../tb/apb_monitor.sv(29) @ 7385: uvm_test_top.env.agent.monitor [Monitor] addr : 0x22f1 | write : 0 | wdata : 0x0 
UVM_INFO ../tb/apb_driver.sv(20) @ 7385: uvm_test_top.env.agent.driver [apb_driver] Driving transaction : addr = 0x22f4 | write = 1 | wdata = 0x0e5ddf55a7dda5958 
UVM_INFO ../tb/apb_monitor.sv(29) @ 7445: uvm_test_top.env.agent.monitor [Monitor] addr : 0x22f4 | write : 1 | wdata : 0xe5ddf55a7dda5958 
UVM_INFO ../tb/apb_driver.sv(20) @ 7445: uvm_test_top.env.agent.driver [apb_driver] Driving transaction : addr = 0x22f0 | write = 0 | wdata = 0x0c0739b3c813f41e 
UVM_INFO ../tb/apb_monitor.sv(29) @ 7505: uvm_test_top.env.agent.monitor [Monitor] addr : 0x22f0 | write : 0 | wdata : 0x0 
UVM_INFO ../tb/apb_driver.sv(20) @ 7505: uvm_test_top.env.agent.driver [apb_driver] Driving transaction : addr = 0x22f4 | write = 0 | wdata = 0x0460fa17c73b3a24c 
UVM_INFO ../tb/apb_monitor.sv(29) @ 7565: uvm_test_top.env.agent.monitor [Monitor] addr : 0x22f4 | write : 0 | wdata : 0x0 
UVM_INFO ../tb/apb_driver.sv(20) @ 7565: uvm_test_top.env.agent.driver [apb_driver] Driving transaction : addr = 0x22f7 | write = 1 | wdata = 0x0e5ddf55a7dda5958 
UVM_INFO ../tb/apb_monitor.sv(29) @ 7625: uvm_test_top.env.agent.monitor [Monitor] addr : 0x22f7 | write : 1 | wdata : 0xe5ddf55a7dda5958 
UVM_INFO ../tb/apb_driver.sv(20) @ 7625: uvm_test_top.env.agent.driver [apb_driver] Driving transaction : addr = 0x22f0 | write = 0 | wdata = 0x0db7b8b1d6a127182 
UVM_INFO ../tb/apb_monitor.sv(29) @ 7685: uvm_test_top.env.agent.monitor [Monitor] addr : 0x22f0 | write : 0 | wdata : 0x0 
UVM_INFO ../tb/apb_driver.sv(20) @ 7685: uvm_test_top.env.agent.driver [apb_driver] Driving transaction : addr = 0x22f7 | write = 0 | wdata = 0x0b65aa25e5db155f4 
UVM_INFO ../tb/apb_monitor.sv(29) @ 7745: uvm_test_top.env.agent.monitor [Monitor] addr : 0x22f7 | write : 0 | wdata : 0x0 
UVM_INFO ../tb/apb_driver.sv(20) @ 7745: uvm_test_top.env.agent.driver [apb_driver] Driving transaction : addr = 0x122f3 | write = 1 | wdata = 0x0e5ddf55a7dda5958 
UVM_INFO ../tb/apb_monitor.sv(29) @ 7805: uvm_test_top.env.agent.monitor [Monitor] addr : 0x122f3 | write : 1 | wdata : 0xe5ddf55a7dda5958 
UVM_INFO ../tb/apb_driver.sv(20) @ 7805: uvm_test_top.env.agent.driver [apb_driver] Driving transaction : addr = 0x22f0 | write = 0 | wdata = 0x0330c54b92c2fca3c 
UVM_INFO ../tb/apb_monitor.sv(29) @ 7865: uvm_test_top.env.agent.monitor [Monitor] addr : 0x22f0 | write : 0 | wdata : 0x0 
UVM_INFO ../tb/apb_driver.sv(20) @ 7865: uvm_test_top.env.agent.driver [apb_driver] Driving transaction : addr = 0x122f3 | write = 0 | wdata = 0x0655a2942f2105100 
UVM_INFO ../tb/apb_monitor.sv(29) @ 7925: uvm_test_top.env.agent.monitor [Monitor] addr : 0x122f3 | write : 0 | wdata : 0x0 
UVM_INFO ../tb/apb_driver.sv(20) @ 7925: uvm_test_top.env.agent.driver [apb_driver] Driving transaction : addr = 0xd7e0 | write = 1 | wdata = 0x0f1aafb46fec74e90 
UVM_INFO ../tb/apb_monitor.sv(29) @ 7985: uvm_test_top.env.agent.monitor [Monitor] addr : 0xd7e0 | write : 1 | wdata : 0xf1aafb46fec74e90 
UVM_INFO ../tb/apb_driver.sv(20) @ 7985: uvm_test_top.env.agent.driver [apb_driver] Driving transaction : addr = 0x1d7e0 | write = 1 | wdata = 0x0e5504b90138b16f 
UVM_INFO ../tb/apb_monitor.sv(29) @ 8045: uvm_test_top.env.agent.monitor [Monitor] addr : 0x1d7e0 | write : 1 | wdata : 0xe5504b90138b16f 
UVM_INFO ../tb/apb_driver.sv(20) @ 8045: uvm_test_top.env.agent.driver [apb_driver] Driving transaction : addr = 0xd7e0 | write = 0 | wdata = 0x0b1fdc7d3426594e0 
UVM_INFO ../tb/apb_monitor.sv(29) @ 8105: uvm_test_top.env.agent.monitor [Monitor] addr : 0xd7e0 | write : 0 | wdata : 0x0 
UVM_INFO ../tb/apb_driver.sv(20) @ 8105: uvm_test_top.env.agent.driver [apb_driver] Driving transaction : addr = 0x1d7e0 | write = 0 | wdata = 0x08b3a1c1a9e274846 
UVM_INFO ../tb/apb_monitor.sv(29) @ 8165: uvm_test_top.env.agent.monitor [Monitor] addr : 0x1d7e0 | write : 0 | wdata : 0x0 
UVM_INFO ../tb/apb_driver.sv(20) @ 8165: uvm_test_top.env.agent.driver [apb_driver] Driving transaction : addr = 0x10d7e0 | write = 1 | wdata = 0x0e5504b90138b16f 
UVM_INFO ../tb/apb_monitor.sv(29) @ 8225: uvm_test_top.env.agent.monitor [Monitor] addr : 0x10d7e0 | write : 1 | wdata : 0xe5504b90138b16f 
UVM_INFO ../tb/apb_driver.sv(20) @ 8225: uvm_test_top.env.agent.driver [apb_driver] Driving transaction : addr = 0xd7e0 | write = 0 | wdata = 0x0dd7acf4900b692a6 
UVM_INFO ../tb/apb_monitor.sv(29) @ 8285: uvm_test_top.env.agent.monitor [Monitor] addr : 0xd7e0 | write : 0 | wdata : 0x0 
UVM_INFO ../tb/apb_driver.sv(20) @ 8285: uvm_test_top.env.agent.driver [apb_driver] Driving transaction : addr = 0x10d7e0 | write = 0 | wdata = 0x04ef89c0f8c93fd6d 
UVM_INFO ../tb/apb_monitor.sv(29) @ 8345: uvm_test_top.env.agent.monitor [Monitor] addr : 0x10d7e0 | write : 0 | wdata : 0x0 
UVM_INFO ../tb/apb_driver.sv(20) @ 8345: uvm_test_top.env.agent.driver [apb_driver] Driving transaction : addr = 0x8000d7e0 | write = 1 | wdata = 0x0e5504b90138b16f 
UVM_INFO ../tb/apb_monitor.sv(29) @ 8405: uvm_test_top.env.agent.monitor [Monitor] addr : 0x8000d7e0 | write : 1 | wdata : 0xe5504b90138b16f 
UVM_INFO ../tb/apb_driver.sv(20) @ 8405: uvm_test_top.env.agent.driver [apb_driver] Driving transaction : addr = 0xd7e0 | write = 0 | wdata = 0x0b257367129bd7229 
UVM_INFO ../tb/apb_monitor.sv(29) @ 8465: uvm_test_top.env.agent.monitor [Monitor] addr : 0xd7e0 | write : 0 | wdata : 0x0 
UVM_INFO ../tb/apb_driver.sv(20) @ 8465: uvm_test_top.env.agent.driver [apb_driver] Driving transaction : addr = 0x8000d7e0 | write = 0 | wdata = 0x07ba01461d4f4f5f3 
UVM_INFO ../tb/apb_monitor.sv(29) @ 8525: uvm_test_top.env.agent.monitor [Monitor] addr : 0x8000d7e0 | write : 0 | wdata : 0x0 
UVM_INFO ../tb/apb_driver.sv(20) @ 8525: uvm_test_top.env.agent.driver [apb_driver] Driving transaction : addr = 0xd7e1 | write = 1 | wdata = 0x0e5504b90138b16f 
UVM_INFO ../tb/apb_monitor.sv(29) @ 8585: uvm_test_top.env.agent.monitor [Monitor] addr : 0xd7e1 | write : 1 | wdata : 0xe5504b90138b16f 
UVM_INFO ../tb/apb_driver.sv(20) @ 8585: uvm_test_top.env.agent.driver [apb_driver] Driving transaction : addr = 0xd7e0 | write = 0 | wdata = 0x0ef67f88a86156b21 
UVM_INFO ../tb/apb_monitor.sv(29) @ 8645: uvm_test_top.env.agent.monitor [Monitor] addr : 0xd7e0 | write : 0 | wdata : 0x0 
UVM_INFO ../tb/apb_driver.sv(20) @ 8645: uvm_test_top.env.agent.driver [apb_driver] Driving transaction : addr = 0xd7e1 | write = 0 | wdata = 0x0bd705035d031529d 
UVM_INFO ../tb/apb_monitor.sv(29) @ 8705: uvm_test_top.env.agent.monitor [Monitor] addr : 0xd7e1 | write : 0 | wdata : 0x0 
UVM_INFO ../tb/apb_driver.sv(20) @ 8705: uvm_test_top.env.agent.driver [apb_driver] Driving transaction : addr = 0xd7e4 | write = 1 | wdata = 0x0e5504b90138b16f 
UVM_INFO ../tb/apb_monitor.sv(29) @ 8765: uvm_test_top.env.agent.monitor [Monitor] addr : 0xd7e4 | write : 1 | wdata : 0xe5504b90138b16f 
UVM_INFO ../tb/apb_driver.sv(20) @ 8765: uvm_test_top.env.agent.driver [apb_driver] Driving transaction : addr = 0xd7e0 | write = 0 | wdata = 0x073850477861d170a 
UVM_INFO ../tb/apb_monitor.sv(29) @ 8825: uvm_test_top.env.agent.monitor [Monitor] addr : 0xd7e0 | write : 0 | wdata : 0x0 
UVM_INFO ../tb/apb_driver.sv(20) @ 8825: uvm_test_top.env.agent.driver [apb_driver] Driving transaction : addr = 0xd7e4 | write = 0 | wdata = 0x02c37f8e7399cdb88 
UVM_INFO ../tb/apb_monitor.sv(29) @ 8885: uvm_test_top.env.agent.monitor [Monitor] addr : 0xd7e4 | write : 0 | wdata : 0x0 
UVM_INFO ../tb/apb_driver.sv(20) @ 8885: uvm_test_top.env.agent.driver [apb_driver] Driving transaction : addr = 0xd7e7 | write = 1 | wdata = 0x0e5504b90138b16f 
UVM_INFO ../tb/apb_monitor.sv(29) @ 8945: uvm_test_top.env.agent.monitor [Monitor] addr : 0xd7e7 | write : 1 | wdata : 0xe5504b90138b16f 
UVM_INFO ../tb/apb_driver.sv(20) @ 8945: uvm_test_top.env.agent.driver [apb_driver] Driving transaction : addr = 0xd7e0 | write = 0 | wdata = 0x0bed22afcb45c604a 
UVM_INFO ../tb/apb_monitor.sv(29) @ 9005: uvm_test_top.env.agent.monitor [Monitor] addr : 0xd7e0 | write : 0 | wdata : 0x0 
UVM_INFO ../tb/apb_driver.sv(20) @ 9005: uvm_test_top.env.agent.driver [apb_driver] Driving transaction : addr = 0xd7e7 | write = 0 | wdata = 0x0575b8a941b63a206 
UVM_INFO ../tb/apb_monitor.sv(29) @ 9065: uvm_test_top.env.agent.monitor [Monitor] addr : 0xd7e7 | write : 0 | wdata : 0x0 
UVM_INFO ../tb/apb_driver.sv(20) @ 9065: uvm_test_top.env.agent.driver [apb_driver] Driving transaction : addr = 0x1d7e3 | write = 1 | wdata = 0x0e5504b90138b16f 
UVM_INFO ../tb/apb_monitor.sv(29) @ 9125: uvm_test_top.env.agent.monitor [Monitor] addr : 0x1d7e3 | write : 1 | wdata : 0xe5504b90138b16f 
UVM_INFO ../tb/apb_driver.sv(20) @ 9125: uvm_test_top.env.agent.driver [apb_driver] Driving transaction : addr = 0xd7e0 | write = 0 | wdata = 0x042acf86d28c5ff9 
UVM_INFO ../tb/apb_monitor.sv(29) @ 9185: uvm_test_top.env.agent.monitor [Monitor] addr : 0xd7e0 | write : 0 | wdata : 0x0 
UVM_INFO ../tb/apb_driver.sv(20) @ 9185: uvm_test_top.env.agent.driver [apb_driver] Driving transaction : addr = 0x1d7e3 | write = 0 | wdata = 0x0ff7bedbecaefbf0 
UVM_INFO ../tb/apb_monitor.sv(29) @ 9245: uvm_test_top.env.agent.monitor [Monitor] addr : 0x1d7e3 | write : 0 | wdata : 0x0 
UVM_INFO ../tb/apb_driver.sv(20) @ 9245: uvm_test_top.env.agent.driver [apb_driver] Driving transaction : addr = 0x4d80 | write = 1 | wdata = 0x0534a1299b904369 
UVM_INFO ../tb/apb_monitor.sv(29) @ 9305: uvm_test_top.env.agent.monitor [Monitor] addr : 0x4d80 | write : 1 | wdata : 0x534a1299b904369 
UVM_INFO ../tb/apb_driver.sv(20) @ 9305: uvm_test_top.env.agent.driver [apb_driver] Driving transaction : addr = 0x14d80 | write = 1 | wdata = 0x0facb5ed6646fbc96 
UVM_INFO ../tb/apb_monitor.sv(29) @ 9365: uvm_test_top.env.agent.monitor [Monitor] addr : 0x14d80 | write : 1 | wdata : 0xfacb5ed6646fbc96 
UVM_INFO ../tb/apb_driver.sv(20) @ 9365: uvm_test_top.env.agent.driver [apb_driver] Driving transaction : addr = 0x4d80 | write = 0 | wdata = 0x05538c15ce6d0e731 
UVM_INFO ../tb/apb_monitor.sv(29) @ 9425: uvm_test_top.env.agent.monitor [Monitor] addr : 0x4d80 | write : 0 | wdata : 0x0 
UVM_INFO ../tb/apb_driver.sv(20) @ 9425: uvm_test_top.env.agent.driver [apb_driver] Driving transaction : addr = 0x14d80 | write = 0 | wdata = 0x07acaa7a4c11839d3 
UVM_INFO ../tb/apb_monitor.sv(29) @ 9485: uvm_test_top.env.agent.monitor [Monitor] addr : 0x14d80 | write : 0 | wdata : 0x0 
UVM_INFO ../tb/apb_driver.sv(20) @ 9485: uvm_test_top.env.agent.driver [apb_driver] Driving transaction : addr = 0x104d80 | write = 1 | wdata = 0x0facb5ed6646fbc96 
UVM_INFO ../tb/apb_monitor.sv(29) @ 9545: uvm_test_top.env.agent.monitor [Monitor] addr : 0x104d80 | write : 1 | wdata : 0xfacb5ed6646fbc96 
UVM_INFO ../tb/apb_driver.sv(20) @ 9545: uvm_test_top.env.agent.driver [apb_driver] Driving transaction : addr = 0x4d80 | write = 0 | wdata = 0x084dbdfcb42938273 
UVM_INFO ../tb/apb_monitor.sv(29) @ 9605: uvm_test_top.env.agent.monitor [Monitor] addr : 0x4d80 | write : 0 | wdata : 0x0 
UVM_INFO ../tb/apb_driver.sv(20) @ 9605: uvm_test_top.env.agent.driver [apb_driver] Driving transaction : addr = 0x104d80 | write = 0 | wdata = 0x0917a7ccb55fbf79 
UVM_INFO ../tb/apb_monitor.sv(29) @ 9665: uvm_test_top.env.agent.monitor [Monitor] addr : 0x104d80 | write : 0 | wdata : 0x0 
UVM_INFO ../tb/apb_driver.sv(20) @ 9665: uvm_test_top.env.agent.driver [apb_driver] Driving transaction : addr = 0x80004d80 | write = 1 | wdata = 0x0facb5ed6646fbc96 
UVM_INFO ../tb/apb_monitor.sv(29) @ 9725: uvm_test_top.env.agent.monitor [Monitor] addr : 0x80004d80 | write : 1 | wdata : 0xfacb5ed6646fbc96 
UVM_INFO ../tb/apb_driver.sv(20) @ 9725: uvm_test_top.env.agent.driver [apb_driver] Driving transaction : addr = 0x4d80 | write = 0 | wdata = 0x029970735eaeaec9d 
UVM_INFO ../tb/apb_monitor.sv(29) @ 9785: uvm_test_top.env.agent.monitor [Monitor] addr : 0x4d80 | write : 0 | wdata : 0x0 
UVM_INFO ../tb/apb_driver.sv(20) @ 9785: uvm_test_top.env.agent.driver [apb_driver] Driving transaction : addr = 0x80004d80 | write = 0 | wdata = 0x0b6b884c3d4eea5da 
UVM_INFO ../tb/apb_monitor.sv(29) @ 9845: uvm_test_top.env.agent.monitor [Monitor] addr : 0x80004d80 | write : 0 | wdata : 0x0 
UVM_INFO ../tb/apb_driver.sv(20) @ 9845: uvm_test_top.env.agent.driver [apb_driver] Driving transaction : addr = 0x4d81 | write = 1 | wdata = 0x0facb5ed6646fbc96 
UVM_INFO ../tb/apb_monitor.sv(29) @ 9905: uvm_test_top.env.agent.monitor [Monitor] addr : 0x4d81 | write : 1 | wdata : 0xfacb5ed6646fbc96 
UVM_INFO ../tb/apb_driver.sv(20) @ 9905: uvm_test_top.env.agent.driver [apb_driver] Driving transaction : addr = 0x4d80 | write = 0 | wdata = 0x04d51339bf82936b6 
UVM_INFO ../tb/apb_monitor.sv(29) @ 9965: uvm_test_top.env.agent.monitor [Monitor] addr : 0x4d80 | write : 0 | wdata : 0x0 
UVM_INFO ../tb/apb_driver.sv(20) @ 9965: uvm_test_top.env.agent.driver [apb_driver] Driving transaction : addr = 0x4d81 | write = 0 | wdata = 0x030ccb5bfe5984c2d 
UVM_INFO ../tb/apb_monitor.sv(29) @ 10025: uvm_test_top.env.agent.monitor [Monitor] addr : 0x4d81 | write : 0 | wdata : 0x0 
UVM_INFO ../tb/apb_driver.sv(20) @ 10025: uvm_test_top.env.agent.driver [apb_driver] Driving transaction : addr = 0x4d84 | write = 1 | wdata = 0x0facb5ed6646fbc96 
UVM_INFO ../tb/apb_monitor.sv(29) @ 10085: uvm_test_top.env.agent.monitor [Monitor] addr : 0x4d84 | write : 1 | wdata : 0xfacb5ed6646fbc96 
UVM_INFO ../tb/apb_driver.sv(20) @ 10085: uvm_test_top.env.agent.driver [apb_driver] Driving transaction : addr = 0x4d80 | write = 0 | wdata = 0x0938a10639c59a59 
UVM_INFO ../tb/apb_monitor.sv(29) @ 10145: uvm_test_top.env.agent.monitor [Monitor] addr : 0x4d80 | write : 0 | wdata : 0x0 
UVM_INFO ../tb/apb_driver.sv(20) @ 10145: uvm_test_top.env.agent.driver [apb_driver] Driving transaction : addr = 0x4d84 | write = 0 | wdata = 0x05b9a7e5e95e2ca52 
UVM_INFO ../tb/apb_monitor.sv(29) @ 10205: uvm_test_top.env.agent.monitor [Monitor] addr : 0x4d84 | write : 0 | wdata : 0x0 
UVM_INFO ../tb/apb_driver.sv(20) @ 10205: uvm_test_top.env.agent.driver [apb_driver] Driving transaction : addr = 0x4d87 | write = 1 | wdata = 0x0facb5ed6646fbc96 
UVM_INFO ../tb/apb_monitor.sv(29) @ 10265: uvm_test_top.env.agent.monitor [Monitor] addr : 0x4d87 | write : 1 | wdata : 0xfacb5ed6646fbc96 
UVM_INFO ../tb/apb_driver.sv(20) @ 10265: uvm_test_top.env.agent.driver [apb_driver] Driving transaction : addr = 0x4d80 | write = 0 | wdata = 0x042a1ed95803c01fc 
UVM_INFO ../tb/apb_monitor.sv(29) @ 10325: uvm_test_top.env.agent.monitor [Monitor] addr : 0x4d80 | write : 0 | wdata : 0x0 
UVM_INFO ../tb/apb_driver.sv(20) @ 10325: uvm_test_top.env.agent.driver [apb_driver] Driving transaction : addr = 0x4d87 | write = 0 | wdata = 0x0e933f8da137f7b21 
UVM_INFO ../tb/apb_monitor.sv(29) @ 10385: uvm_test_top.env.agent.monitor [Monitor] addr : 0x4d87 | write : 0 | wdata : 0x0 
UVM_INFO ../tb/apb_driver.sv(20) @ 10385: uvm_test_top.env.agent.driver [apb_driver] Driving transaction : addr = 0x14d83 | write = 1 | wdata = 0x0facb5ed6646fbc96 
UVM_INFO ../tb/apb_monitor.sv(29) @ 10445: uvm_test_top.env.agent.monitor [Monitor] addr : 0x14d83 | write : 1 | wdata : 0xfacb5ed6646fbc96 
UVM_INFO ../tb/apb_driver.sv(20) @ 10445: uvm_test_top.env.agent.driver [apb_driver] Driving transaction : addr = 0x4d80 | write = 0 | wdata = 0x023ad2733f7b2fd8e 
UVM_INFO ../tb/apb_monitor.sv(29) @ 10505: uvm_test_top.env.agent.monitor [Monitor] addr : 0x4d80 | write : 0 | wdata : 0x0 
UVM_INFO ../tb/apb_driver.sv(20) @ 10505: uvm_test_top.env.agent.driver [apb_driver] Driving transaction : addr = 0x14d83 | write = 0 | wdata = 0x044ff5c75f11c49b4 
UVM_INFO ../tb/apb_monitor.sv(29) @ 10565: uvm_test_top.env.agent.monitor [Monitor] addr : 0x14d83 | write : 0 | wdata : 0x0 
UVM_INFO ../tb/apb_driver.sv(20) @ 10565: uvm_test_top.env.agent.driver [apb_driver] Driving transaction : addr = 0xc058 | write = 1 | wdata = 0x033a3325a33434071 
UVM_INFO ../tb/apb_monitor.sv(29) @ 10625: uvm_test_top.env.agent.monitor [Monitor] addr : 0xc058 | write : 1 | wdata : 0x33a3325a33434071 
UVM_INFO ../tb/apb_driver.sv(20) @ 10625: uvm_test_top.env.agent.driver [apb_driver] Driving transaction : addr = 0x1c058 | write = 1 | wdata = 0x0cc5ccda5ccbcbf8e 
UVM_INFO ../tb/apb_monitor.sv(29) @ 10685: uvm_test_top.env.agent.monitor [Monitor] addr : 0x1c058 | write : 1 | wdata : 0xcc5ccda5ccbcbf8e 
UVM_INFO ../tb/apb_driver.sv(20) @ 10685: uvm_test_top.env.agent.driver [apb_driver] Driving transaction : addr = 0xc058 | write = 0 | wdata = 0x023053f7b9ddbd383 
UVM_INFO ../tb/apb_monitor.sv(29) @ 10745: uvm_test_top.env.agent.monitor [Monitor] addr : 0xc058 | write : 0 | wdata : 0x0 
UVM_INFO ../tb/apb_driver.sv(20) @ 10745: uvm_test_top.env.agent.driver [apb_driver] Driving transaction : addr = 0x1c058 | write = 0 | wdata = 0x0f3a6d76ebab610cc 
UVM_INFO ../tb/apb_monitor.sv(29) @ 10805: uvm_test_top.env.agent.monitor [Monitor] addr : 0x1c058 | write : 0 | wdata : 0x0 
UVM_INFO ../tb/apb_driver.sv(20) @ 10805: uvm_test_top.env.agent.driver [apb_driver] Driving transaction : addr = 0x10c058 | write = 1 | wdata = 0x0cc5ccda5ccbcbf8e 
UVM_INFO ../tb/apb_monitor.sv(29) @ 10865: uvm_test_top.env.agent.monitor [Monitor] addr : 0x10c058 | write : 1 | wdata : 0xcc5ccda5ccbcbf8e 
UVM_INFO ../tb/apb_driver.sv(20) @ 10865: uvm_test_top.env.agent.driver [apb_driver] Driving transaction : addr = 0xc058 | write = 0 | wdata = 0x06a6dffdda726b54e 
UVM_INFO ../tb/apb_monitor.sv(29) @ 10925: uvm_test_top.env.agent.monitor [Monitor] addr : 0xc058 | write : 0 | wdata : 0x0 
UVM_INFO ../tb/apb_driver.sv(20) @ 10925: uvm_test_top.env.agent.driver [apb_driver] Driving transaction : addr = 0x10c058 | write = 0 | wdata = 0x0d9c79c0b9d72c140 
UVM_INFO ../tb/apb_monitor.sv(29) @ 10985: uvm_test_top.env.agent.monitor [Monitor] addr : 0x10c058 | write : 0 | wdata : 0x0 
UVM_INFO ../tb/apb_driver.sv(20) @ 10985: uvm_test_top.env.agent.driver [apb_driver] Driving transaction : addr = 0x8000c058 | write = 1 | wdata = 0x0cc5ccda5ccbcbf8e 
UVM_INFO ../tb/apb_monitor.sv(29) @ 11045: uvm_test_top.env.agent.monitor [Monitor] addr : 0x8000c058 | write : 1 | wdata : 0xcc5ccda5ccbcbf8e 
UVM_INFO ../tb/apb_driver.sv(20) @ 11045: uvm_test_top.env.agent.driver [apb_driver] Driving transaction : addr = 0xc058 | write = 0 | wdata = 0x0426dab6039ed3965 
UVM_INFO ../tb/apb_monitor.sv(29) @ 11105: uvm_test_top.env.agent.monitor [Monitor] addr : 0xc058 | write : 0 | wdata : 0x0 
UVM_INFO ../tb/apb_driver.sv(20) @ 11105: uvm_test_top.env.agent.driver [apb_driver] Driving transaction : addr = 0x8000c058 | write = 0 | wdata = 0x07ed79a3baaf4ae3c 
UVM_INFO ../tb/apb_monitor.sv(29) @ 11165: uvm_test_top.env.agent.monitor [Monitor] addr : 0x8000c058 | write : 0 | wdata : 0x0 
UVM_INFO ../tb/apb_driver.sv(20) @ 11165: uvm_test_top.env.agent.driver [apb_driver] Driving transaction : addr = 0xc059 | write = 1 | wdata = 0x0cc5ccda5ccbcbf8e 
UVM_INFO ../tb/apb_monitor.sv(29) @ 11225: uvm_test_top.env.agent.monitor [Monitor] addr : 0xc059 | write : 1 | wdata : 0xcc5ccda5ccbcbf8e 
UVM_INFO ../tb/apb_driver.sv(20) @ 11225: uvm_test_top.env.agent.driver [apb_driver] Driving transaction : addr = 0xc058 | write = 0 | wdata = 0x0bf54a6c97f521bc1 
UVM_INFO ../tb/apb_monitor.sv(29) @ 11285: uvm_test_top.env.agent.monitor [Monitor] addr : 0xc058 | write : 0 | wdata : 0x0 
UVM_INFO ../tb/apb_driver.sv(20) @ 11285: uvm_test_top.env.agent.driver [apb_driver] Driving transaction : addr = 0xc059 | write = 0 | wdata = 0x0786e56eb5d9cc646 
UVM_INFO ../tb/apb_monitor.sv(29) @ 11345: uvm_test_top.env.agent.monitor [Monitor] addr : 0xc059 | write : 0 | wdata : 0x0 
UVM_INFO ../tb/apb_driver.sv(20) @ 11345: uvm_test_top.env.agent.driver [apb_driver] Driving transaction : addr = 0xc05c | write = 1 | wdata = 0x0cc5ccda5ccbcbf8e 
UVM_INFO ../tb/apb_monitor.sv(29) @ 11405: uvm_test_top.env.agent.monitor [Monitor] addr : 0xc05c | write : 1 | wdata : 0xcc5ccda5ccbcbf8e 
UVM_INFO ../tb/apb_driver.sv(20) @ 11405: uvm_test_top.env.agent.driver [apb_driver] Driving transaction : addr = 0xc058 | write = 0 | wdata = 0x0bf91027013f8fe7f 
UVM_INFO ../tb/apb_monitor.sv(29) @ 11465: uvm_test_top.env.agent.monitor [Monitor] addr : 0xc058 | write : 0 | wdata : 0x0 
UVM_INFO ../tb/apb_driver.sv(20) @ 11465: uvm_test_top.env.agent.driver [apb_driver] Driving transaction : addr = 0xc05c | write = 0 | wdata = 0x098e9631216562935 
UVM_INFO ../tb/apb_monitor.sv(29) @ 11525: uvm_test_top.env.agent.monitor [Monitor] addr : 0xc05c | write : 0 | wdata : 0x0 
UVM_INFO ../tb/apb_driver.sv(20) @ 11525: uvm_test_top.env.agent.driver [apb_driver] Driving transaction : addr = 0xc05f | write = 1 | wdata = 0x0cc5ccda5ccbcbf8e 
UVM_INFO ../tb/apb_monitor.sv(29) @ 11585: uvm_test_top.env.agent.monitor [Monitor] addr : 0xc05f | write : 1 | wdata : 0xcc5ccda5ccbcbf8e 
UVM_INFO ../tb/apb_driver.sv(20) @ 11585: uvm_test_top.env.agent.driver [apb_driver] Driving transaction : addr = 0xc058 | write = 0 | wdata = 0x0dcfb8b22c291cc5a 
UVM_INFO ../tb/apb_monitor.sv(29) @ 11645: uvm_test_top.env.agent.monitor [Monitor] addr : 0xc058 | write : 0 | wdata : 0x0 
UVM_INFO ../tb/apb_driver.sv(20) @ 11645: uvm_test_top.env.agent.driver [apb_driver] Driving transaction : addr = 0xc05f | write = 0 | wdata = 0x080cbcf35a5f0e38e 
UVM_INFO ../tb/apb_monitor.sv(29) @ 11705: uvm_test_top.env.agent.monitor [Monitor] addr : 0xc05f | write : 0 | wdata : 0x0 
UVM_INFO ../tb/apb_driver.sv(20) @ 11705: uvm_test_top.env.agent.driver [apb_driver] Driving transaction : addr = 0x1c05b | write = 1 | wdata = 0x0cc5ccda5ccbcbf8e 
UVM_INFO ../tb/apb_monitor.sv(29) @ 11765: uvm_test_top.env.agent.monitor [Monitor] addr : 0x1c05b | write : 1 | wdata : 0xcc5ccda5ccbcbf8e 
UVM_INFO ../tb/apb_driver.sv(20) @ 11765: uvm_test_top.env.agent.driver [apb_driver] Driving transaction : addr = 0xc058 | write = 0 | wdata = 0x0505a13587d5a7544 
UVM_INFO ../tb/apb_monitor.sv(29) @ 11825: uvm_test_top.env.agent.monitor [Monitor] addr : 0xc058 | write : 0 | wdata : 0x0 
UVM_INFO ../tb/apb_driver.sv(20) @ 11825: uvm_test_top.env.agent.driver [apb_driver] Driving transaction : addr = 0x1c05b | write = 0 | wdata = 0x0f1c9f3f29e366548 
UVM_INFO ../tb/apb_monitor.sv(29) @ 11885: uvm_test_top.env.agent.monitor [Monitor] addr : 0x1c05b | write : 0 | wdata : 0x0 
UVM_INFO ../tb/apb_driver.sv(20) @ 11885: uvm_test_top.env.agent.driver [apb_driver] Driving transaction : addr = 0x4fb8 | write = 1 | wdata = 0x0dbfdf218430e4598 
UVM_INFO ../tb/apb_monitor.sv(29) @ 11945: uvm_test_top.env.agent.monitor [Monitor] addr : 0x4fb8 | write : 1 | wdata : 0xdbfdf218430e4598 
UVM_INFO ../tb/apb_driver.sv(20) @ 11945: uvm_test_top.env.agent.driver [apb_driver] Driving transaction : addr = 0x14fb8 | write = 1 | wdata = 0x024020de7bcf1ba67 
UVM_INFO ../tb/apb_monitor.sv(29) @ 12005: uvm_test_top.env.agent.monitor [Monitor] addr : 0x14fb8 | write : 1 | wdata : 0x24020de7bcf1ba67 
UVM_INFO ../tb/apb_driver.sv(20) @ 12005: uvm_test_top.env.agent.driver [apb_driver] Driving transaction : addr = 0x4fb8 | write = 0 | wdata = 0x0bdf50e693c56f363 
UVM_INFO ../tb/apb_monitor.sv(29) @ 12065: uvm_test_top.env.agent.monitor [Monitor] addr : 0x4fb8 | write : 0 | wdata : 0x0 
UVM_INFO ../tb/apb_driver.sv(20) @ 12065: uvm_test_top.env.agent.driver [apb_driver] Driving transaction : addr = 0x14fb8 | write = 0 | wdata = 0x0d35bdd621c5571e1 
UVM_INFO ../tb/apb_monitor.sv(29) @ 12125: uvm_test_top.env.agent.monitor [Monitor] addr : 0x14fb8 | write : 0 | wdata : 0x0 
UVM_INFO ../tb/apb_driver.sv(20) @ 12125: uvm_test_top.env.agent.driver [apb_driver] Driving transaction : addr = 0x104fb8 | write = 1 | wdata = 0x024020de7bcf1ba67 
UVM_INFO ../tb/apb_monitor.sv(29) @ 12185: uvm_test_top.env.agent.monitor [Monitor] addr : 0x104fb8 | write : 1 | wdata : 0x24020de7bcf1ba67 
UVM_INFO ../tb/apb_driver.sv(20) @ 12185: uvm_test_top.env.agent.driver [apb_driver] Driving transaction : addr = 0x4fb8 | write = 0 | wdata = 0x084baf2be90821232 
UVM_INFO ../tb/apb_monitor.sv(29) @ 12245: uvm_test_top.env.agent.monitor [Monitor] addr : 0x4fb8 | write : 0 | wdata : 0x0 
UVM_INFO ../tb/apb_driver.sv(20) @ 12245: uvm_test_top.env.agent.driver [apb_driver] Driving transaction : addr = 0x104fb8 | write = 0 | wdata = 0x07de491ce8b9605e7 
UVM_INFO ../tb/apb_monitor.sv(29) @ 12305: uvm_test_top.env.agent.monitor [Monitor] addr : 0x104fb8 | write : 0 | wdata : 0x0 
UVM_INFO ../tb/apb_driver.sv(20) @ 12305: uvm_test_top.env.agent.driver [apb_driver] Driving transaction : addr = 0x80004fb8 | write = 1 | wdata = 0x024020de7bcf1ba67 
UVM_INFO ../tb/apb_monitor.sv(29) @ 12365: uvm_test_top.env.agent.monitor [Monitor] addr : 0x80004fb8 | write : 1 | wdata : 0x24020de7bcf1ba67 
UVM_INFO ../tb/apb_driver.sv(20) @ 12365: uvm_test_top.env.agent.driver [apb_driver] Driving transaction : addr = 0x4fb8 | write = 0 | wdata = 0x04c67af8fee67e41 
UVM_INFO ../tb/apb_monitor.sv(29) @ 12425: uvm_test_top.env.agent.monitor [Monitor] addr : 0x4fb8 | write : 0 | wdata : 0x0 
UVM_INFO ../tb/apb_driver.sv(20) @ 12425: uvm_test_top.env.agent.driver [apb_driver] Driving transaction : addr = 0x80004fb8 | write = 0 | wdata = 0x077259523f96c9b64 
UVM_INFO ../tb/apb_monitor.sv(29) @ 12485: uvm_test_top.env.agent.monitor [Monitor] addr : 0x80004fb8 | write : 0 | wdata : 0x0 
UVM_INFO ../tb/apb_driver.sv(20) @ 12485: uvm_test_top.env.agent.driver [apb_driver] Driving transaction : addr = 0x4fb9 | write = 1 | wdata = 0x024020de7bcf1ba67 
UVM_INFO ../tb/apb_monitor.sv(29) @ 12545: uvm_test_top.env.agent.monitor [Monitor] addr : 0x4fb9 | write : 1 | wdata : 0x24020de7bcf1ba67 
UVM_INFO ../tb/apb_driver.sv(20) @ 12545: uvm_test_top.env.agent.driver [apb_driver] Driving transaction : addr = 0x4fb8 | write = 0 | wdata = 0x041a98e540a1a355f 
UVM_INFO ../tb/apb_monitor.sv(29) @ 12605: uvm_test_top.env.agent.monitor [Monitor] addr : 0x4fb8 | write : 0 | wdata : 0x0 
UVM_INFO ../tb/apb_driver.sv(20) @ 12605: uvm_test_top.env.agent.driver [apb_driver] Driving transaction : addr = 0x4fb9 | write = 0 | wdata = 0x05b1c1f3a5be106e6 
UVM_INFO ../tb/apb_monitor.sv(29) @ 12665: uvm_test_top.env.agent.monitor [Monitor] addr : 0x4fb9 | write : 0 | wdata : 0x0 
UVM_INFO ../tb/apb_driver.sv(20) @ 12665: uvm_test_top.env.agent.driver [apb_driver] Driving transaction : addr = 0x4fbc | write = 1 | wdata = 0x024020de7bcf1ba67 
UVM_INFO ../tb/apb_monitor.sv(29) @ 12725: uvm_test_top.env.agent.monitor [Monitor] addr : 0x4fbc | write : 1 | wdata : 0x24020de7bcf1ba67 
UVM_INFO ../tb/apb_driver.sv(20) @ 12725: uvm_test_top.env.agent.driver [apb_driver] Driving transaction : addr = 0x4fb8 | write = 0 | wdata = 0x0fc199db3b31c9509 
UVM_INFO ../tb/apb_monitor.sv(29) @ 12785: uvm_test_top.env.agent.monitor [Monitor] addr : 0x4fb8 | write : 0 | wdata : 0x0 
UVM_INFO ../tb/apb_driver.sv(20) @ 12785: uvm_test_top.env.agent.driver [apb_driver] Driving transaction : addr = 0x4fbc | write = 0 | wdata = 0x068d41128117ab6c4 
UVM_INFO ../tb/apb_monitor.sv(29) @ 12845: uvm_test_top.env.agent.monitor [Monitor] addr : 0x4fbc | write : 0 | wdata : 0x0 
UVM_INFO ../tb/apb_driver.sv(20) @ 12845: uvm_test_top.env.agent.driver [apb_driver] Driving transaction : addr = 0x4fbf | write = 1 | wdata = 0x024020de7bcf1ba67 
UVM_INFO ../tb/apb_monitor.sv(29) @ 12905: uvm_test_top.env.agent.monitor [Monitor] addr : 0x4fbf | write : 1 | wdata : 0x24020de7bcf1ba67 
UVM_INFO ../tb/apb_driver.sv(20) @ 12905: uvm_test_top.env.agent.driver [apb_driver] Driving transaction : addr = 0x4fb8 | write = 0 | wdata = 0x0efa00abbc3a2d142 
UVM_INFO ../tb/apb_monitor.sv(29) @ 12965: uvm_test_top.env.agent.monitor [Monitor] addr : 0x4fb8 | write : 0 | wdata : 0x0 
UVM_INFO ../tb/apb_driver.sv(20) @ 12965: uvm_test_top.env.agent.driver [apb_driver] Driving transaction : addr = 0x4fbf | write = 0 | wdata = 0x041f79cb9fe176282 
UVM_INFO ../tb/apb_monitor.sv(29) @ 13025: uvm_test_top.env.agent.monitor [Monitor] addr : 0x4fbf | write : 0 | wdata : 0x0 
UVM_INFO ../tb/apb_driver.sv(20) @ 13025: uvm_test_top.env.agent.driver [apb_driver] Driving transaction : addr = 0x14fbb | write = 1 | wdata = 0x024020de7bcf1ba67 
UVM_INFO ../tb/apb_monitor.sv(29) @ 13085: uvm_test_top.env.agent.monitor [Monitor] addr : 0x14fbb | write : 1 | wdata : 0x24020de7bcf1ba67 
UVM_INFO ../tb/apb_driver.sv(20) @ 13085: uvm_test_top.env.agent.driver [apb_driver] Driving transaction : addr = 0x4fb8 | write = 0 | wdata = 0x04cfab06d4b0c37a2 
UVM_INFO ../tb/apb_monitor.sv(29) @ 13145: uvm_test_top.env.agent.monitor [Monitor] addr : 0x4fb8 | write : 0 | wdata : 0x0 
UVM_INFO ../tb/apb_driver.sv(20) @ 13145: uvm_test_top.env.agent.driver [apb_driver] Driving transaction : addr = 0x14fbb | write = 0 | wdata = 0x0f3c10974ba18da5a 
UVM_INFO ../tb/apb_monitor.sv(29) @ 13205: uvm_test_top.env.agent.monitor [Monitor] addr : 0x14fbb | write : 0 | wdata : 0x0 
UVM_INFO ../tb/apb_driver.sv(20) @ 13205: uvm_test_top.env.agent.driver [apb_driver] Driving transaction : addr = 0x4748 | write = 1 | wdata = 0x0835c39fe58f8574b 
UVM_INFO ../tb/apb_monitor.sv(29) @ 13265: uvm_test_top.env.agent.monitor [Monitor] addr : 0x4748 | write : 1 | wdata : 0x835c39fe58f8574b 
UVM_INFO ../tb/apb_driver.sv(20) @ 13265: uvm_test_top.env.agent.driver [apb_driver] Driving transaction : addr = 0x14748 | write = 1 | wdata = 0x07ca3c601a707a8b4 
UVM_INFO ../tb/apb_monitor.sv(29) @ 13325: uvm_test_top.env.agent.monitor [Monitor] addr : 0x14748 | write : 1 | wdata : 0x7ca3c601a707a8b4 
UVM_INFO ../tb/apb_driver.sv(20) @ 13325: uvm_test_top.env.agent.driver [apb_driver] Driving transaction : addr = 0x4748 | write = 0 | wdata = 0x0b9d1c1556ee29901 
UVM_INFO ../tb/apb_monitor.sv(29) @ 13385: uvm_test_top.env.agent.monitor [Monitor] addr : 0x4748 | write : 0 | wdata : 0x0 
UVM_INFO ../tb/apb_driver.sv(20) @ 13385: uvm_test_top.env.agent.driver [apb_driver] Driving transaction : addr = 0x14748 | write = 0 | wdata = 0x0bf1d06cefad86fd0 
UVM_INFO ../tb/apb_monitor.sv(29) @ 13445: uvm_test_top.env.agent.monitor [Monitor] addr : 0x14748 | write : 0 | wdata : 0x0 
UVM_INFO ../tb/apb_driver.sv(20) @ 13445: uvm_test_top.env.agent.driver [apb_driver] Driving transaction : addr = 0x104748 | write = 1 | wdata = 0x07ca3c601a707a8b4 
UVM_INFO ../tb/apb_monitor.sv(29) @ 13505: uvm_test_top.env.agent.monitor [Monitor] addr : 0x104748 | write : 1 | wdata : 0x7ca3c601a707a8b4 
UVM_INFO ../tb/apb_driver.sv(20) @ 13505: uvm_test_top.env.agent.driver [apb_driver] Driving transaction : addr = 0x4748 | write = 0 | wdata = 0x08a8930c470e2cfab 
UVM_INFO ../tb/apb_monitor.sv(29) @ 13565: uvm_test_top.env.agent.monitor [Monitor] addr : 0x4748 | write : 0 | wdata : 0x0 
UVM_INFO ../tb/apb_driver.sv(20) @ 13565: uvm_test_top.env.agent.driver [apb_driver] Driving transaction : addr = 0x104748 | write = 0 | wdata = 0x05a6d448d9baec725 
UVM_INFO ../tb/apb_monitor.sv(29) @ 13625: uvm_test_top.env.agent.monitor [Monitor] addr : 0x104748 | write : 0 | wdata : 0x0 
UVM_INFO ../tb/apb_driver.sv(20) @ 13625: uvm_test_top.env.agent.driver [apb_driver] Driving transaction : addr = 0x80004748 | write = 1 | wdata = 0x07ca3c601a707a8b4 
UVM_INFO ../tb/apb_monitor.sv(29) @ 13685: uvm_test_top.env.agent.monitor [Monitor] addr : 0x80004748 | write : 1 | wdata : 0x7ca3c601a707a8b4 
UVM_INFO ../tb/apb_driver.sv(20) @ 13685: uvm_test_top.env.agent.driver [apb_driver] Driving transaction : addr = 0x4748 | write = 0 | wdata = 0x0fd64ab2c0d7b7dc7 
UVM_INFO ../tb/apb_monitor.sv(29) @ 13745: uvm_test_top.env.agent.monitor [Monitor] addr : 0x4748 | write : 0 | wdata : 0x0 
UVM_INFO ../tb/apb_driver.sv(20) @ 13745: uvm_test_top.env.agent.driver [apb_driver] Driving transaction : addr = 0x80004748 | write = 0 | wdata = 0x074a2dd5b46ecfb1e 
UVM_INFO ../tb/apb_monitor.sv(29) @ 13805: uvm_test_top.env.agent.monitor [Monitor] addr : 0x80004748 | write : 0 | wdata : 0x0 
UVM_INFO ../tb/apb_driver.sv(20) @ 13805: uvm_test_top.env.agent.driver [apb_driver] Driving transaction : addr = 0x4749 | write = 1 | wdata = 0x07ca3c601a707a8b4 
UVM_INFO ../tb/apb_monitor.sv(29) @ 13865: uvm_test_top.env.agent.monitor [Monitor] addr : 0x4749 | write : 1 | wdata : 0x7ca3c601a707a8b4 
UVM_INFO ../tb/apb_driver.sv(20) @ 13865: uvm_test_top.env.agent.driver [apb_driver] Driving transaction : addr = 0x4748 | write = 0 | wdata = 0x0c4c9fd27cb0b84d9 
UVM_INFO ../tb/apb_monitor.sv(29) @ 13925: uvm_test_top.env.agent.monitor [Monitor] addr : 0x4748 | write : 0 | wdata : 0x0 
UVM_INFO ../tb/apb_driver.sv(20) @ 13925: uvm_test_top.env.agent.driver [apb_driver] Driving transaction : addr = 0x4749 | write = 0 | wdata = 0x016db522bd67bd5b9 
UVM_INFO ../tb/apb_monitor.sv(29) @ 13985: uvm_test_top.env.agent.monitor [Monitor] addr : 0x4749 | write : 0 | wdata : 0x0 
UVM_INFO ../tb/apb_driver.sv(20) @ 13985: uvm_test_top.env.agent.driver [apb_driver] Driving transaction : addr = 0x474c | write = 1 | wdata = 0x07ca3c601a707a8b4 
UVM_INFO ../tb/apb_monitor.sv(29) @ 14045: uvm_test_top.env.agent.monitor [Monitor] addr : 0x474c | write : 1 | wdata : 0x7ca3c601a707a8b4 
UVM_INFO ../tb/apb_driver.sv(20) @ 14045: uvm_test_top.env.agent.driver [apb_driver] Driving transaction : addr = 0x4748 | write = 0 | wdata = 0x030979543b034eeda 
UVM_INFO ../tb/apb_monitor.sv(29) @ 14105: uvm_test_top.env.agent.monitor [Monitor] addr : 0x4748 | write : 0 | wdata : 0x0 
UVM_INFO ../tb/apb_driver.sv(20) @ 14105: uvm_test_top.env.agent.driver [apb_driver] Driving transaction : addr = 0x474c | write = 0 | wdata = 0x059ab4093570e2412 
UVM_INFO ../tb/apb_monitor.sv(29) @ 14165: uvm_test_top.env.agent.monitor [Monitor] addr : 0x474c | write : 0 | wdata : 0x0 
UVM_INFO ../tb/apb_driver.sv(20) @ 14165: uvm_test_top.env.agent.driver [apb_driver] Driving transaction : addr = 0x474f | write = 1 | wdata = 0x07ca3c601a707a8b4 
UVM_INFO ../tb/apb_monitor.sv(29) @ 14225: uvm_test_top.env.agent.monitor [Monitor] addr : 0x474f | write : 1 | wdata : 0x7ca3c601a707a8b4 
UVM_INFO ../tb/apb_driver.sv(20) @ 14225: uvm_test_top.env.agent.driver [apb_driver] Driving transaction : addr = 0x4748 | write = 0 | wdata = 0x08f0580cb1af9c01b 
UVM_INFO ../tb/apb_monitor.sv(29) @ 14285: uvm_test_top.env.agent.monitor [Monitor] addr : 0x4748 | write : 0 | wdata : 0x0 
UVM_INFO ../tb/apb_driver.sv(20) @ 14285: uvm_test_top.env.agent.driver [apb_driver] Driving transaction : addr = 0x474f | write = 0 | wdata = 0x010f3cfac9e8e5de9 
UVM_INFO ../tb/apb_monitor.sv(29) @ 14345: uvm_test_top.env.agent.monitor [Monitor] addr : 0x474f | write : 0 | wdata : 0x0 
UVM_INFO ../tb/apb_driver.sv(20) @ 14345: uvm_test_top.env.agent.driver [apb_driver] Driving transaction : addr = 0x1474b | write = 1 | wdata = 0x07ca3c601a707a8b4 
UVM_INFO ../tb/apb_monitor.sv(29) @ 14405: uvm_test_top.env.agent.monitor [Monitor] addr : 0x1474b | write : 1 | wdata : 0x7ca3c601a707a8b4 
UVM_INFO ../tb/apb_driver.sv(20) @ 14405: uvm_test_top.env.agent.driver [apb_driver] Driving transaction : addr = 0x4748 | write = 0 | wdata = 0x0abaf02c724069959 
UVM_INFO ../tb/apb_monitor.sv(29) @ 14465: uvm_test_top.env.agent.monitor [Monitor] addr : 0x4748 | write : 0 | wdata : 0x0 
UVM_INFO ../tb/apb_driver.sv(20) @ 14465: uvm_test_top.env.agent.driver [apb_driver] Driving transaction : addr = 0x1474b | write = 0 | wdata = 0x0a2214b4c05093d1b 
UVM_INFO ../tb/apb_monitor.sv(29) @ 14525: uvm_test_top.env.agent.monitor [Monitor] addr : 0x1474b | write : 0 | wdata : 0x0 
UVM_INFO ../tb/apb_driver.sv(20) @ 14525: uvm_test_top.env.agent.driver [apb_driver] Driving transaction : addr = 0x19a0 | write = 1 | wdata = 0x0aeaa29255df6a91f 
UVM_INFO ../tb/apb_monitor.sv(29) @ 14585: uvm_test_top.env.agent.monitor [Monitor] addr : 0x19a0 | write : 1 | wdata : 0xaeaa29255df6a91f 
UVM_INFO ../tb/apb_driver.sv(20) @ 14585: uvm_test_top.env.agent.driver [apb_driver] Driving transaction : addr = 0x119a0 | write = 1 | wdata = 0x05155d6daa20956e0 
UVM_INFO ../tb/apb_monitor.sv(29) @ 14645: uvm_test_top.env.agent.monitor [Monitor] addr : 0x119a0 | write : 1 | wdata : 0x5155d6daa20956e0 
UVM_INFO ../tb/apb_driver.sv(20) @ 14645: uvm_test_top.env.agent.driver [apb_driver] Driving transaction : addr = 0x19a0 | write = 0 | wdata = 0x09095dca82c4e1f5b 
UVM_INFO ../tb/apb_monitor.sv(29) @ 14705: uvm_test_top.env.agent.monitor [Monitor] addr : 0x19a0 | write : 0 | wdata : 0x0 
UVM_INFO ../tb/apb_driver.sv(20) @ 14705: uvm_test_top.env.agent.driver [apb_driver] Driving transaction : addr = 0x119a0 | write = 0 | wdata = 0x0487ff6d80adfdbfd 
UVM_INFO ../tb/apb_monitor.sv(29) @ 14765: uvm_test_top.env.agent.monitor [Monitor] addr : 0x119a0 | write : 0 | wdata : 0x0 
UVM_INFO ../tb/apb_driver.sv(20) @ 14765: uvm_test_top.env.agent.driver [apb_driver] Driving transaction : addr = 0x1019a0 | write = 1 | wdata = 0x05155d6daa20956e0 
UVM_INFO ../tb/apb_monitor.sv(29) @ 14825: uvm_test_top.env.agent.monitor [Monitor] addr : 0x1019a0 | write : 1 | wdata : 0x5155d6daa20956e0 
UVM_INFO ../tb/apb_driver.sv(20) @ 14825: uvm_test_top.env.agent.driver [apb_driver] Driving transaction : addr = 0x19a0 | write = 0 | wdata = 0x07c293ea2c94fd800 
UVM_INFO ../tb/apb_monitor.sv(29) @ 14885: uvm_test_top.env.agent.monitor [Monitor] addr : 0x19a0 | write : 0 | wdata : 0x0 
UVM_INFO ../tb/apb_driver.sv(20) @ 14885: uvm_test_top.env.agent.driver [apb_driver] Driving transaction : addr = 0x1019a0 | write = 0 | wdata = 0x0c3f0eecb82ff1a7c 
UVM_INFO ../tb/apb_monitor.sv(29) @ 14945: uvm_test_top.env.agent.monitor [Monitor] addr : 0x1019a0 | write : 0 | wdata : 0x0 
UVM_INFO ../tb/apb_driver.sv(20) @ 14945: uvm_test_top.env.agent.driver [apb_driver] Driving transaction : addr = 0x800019a0 | write = 1 | wdata = 0x05155d6daa20956e0 
UVM_INFO ../tb/apb_monitor.sv(29) @ 15005: uvm_test_top.env.agent.monitor [Monitor] addr : 0x800019a0 | write : 1 | wdata : 0x5155d6daa20956e0 
UVM_INFO ../tb/apb_driver.sv(20) @ 15005: uvm_test_top.env.agent.driver [apb_driver] Driving transaction : addr = 0x19a0 | write = 0 | wdata = 0x0d2b78471b2c091fa 
UVM_INFO ../tb/apb_monitor.sv(29) @ 15065: uvm_test_top.env.agent.monitor [Monitor] addr : 0x19a0 | write : 0 | wdata : 0x0 
UVM_INFO ../tb/apb_driver.sv(20) @ 15065: uvm_test_top.env.agent.driver [apb_driver] Driving transaction : addr = 0x800019a0 | write = 0 | wdata = 0x03d4b0343253751cf 
UVM_INFO ../tb/apb_monitor.sv(29) @ 15125: uvm_test_top.env.agent.monitor [Monitor] addr : 0x800019a0 | write : 0 | wdata : 0x0 
UVM_INFO ../tb/apb_driver.sv(20) @ 15125: uvm_test_top.env.agent.driver [apb_driver] Driving transaction : addr = 0x19a1 | write = 1 | wdata = 0x05155d6daa20956e0 
UVM_INFO ../tb/apb_monitor.sv(29) @ 15185: uvm_test_top.env.agent.monitor [Monitor] addr : 0x19a1 | write : 1 | wdata : 0x5155d6daa20956e0 
UVM_INFO ../tb/apb_driver.sv(20) @ 15185: uvm_test_top.env.agent.driver [apb_driver] Driving transaction : addr = 0x19a0 | write = 0 | wdata = 0x02635bb34c8d85c85 
UVM_INFO ../tb/apb_monitor.sv(29) @ 15245: uvm_test_top.env.agent.monitor [Monitor] addr : 0x19a0 | write : 0 | wdata : 0x0 
UVM_INFO ../tb/apb_driver.sv(20) @ 15245: uvm_test_top.env.agent.driver [apb_driver] Driving transaction : addr = 0x19a1 | write = 0 | wdata = 0x0ce46a0cc775d8c57 
UVM_INFO ../tb/apb_monitor.sv(29) @ 15305: uvm_test_top.env.agent.monitor [Monitor] addr : 0x19a1 | write : 0 | wdata : 0x0 
UVM_INFO ../tb/apb_driver.sv(20) @ 15305: uvm_test_top.env.agent.driver [apb_driver] Driving transaction : addr = 0x19a4 | write = 1 | wdata = 0x05155d6daa20956e0 
UVM_INFO ../tb/apb_monitor.sv(29) @ 15365: uvm_test_top.env.agent.monitor [Monitor] addr : 0x19a4 | write : 1 | wdata : 0x5155d6daa20956e0 
UVM_INFO ../tb/apb_driver.sv(20) @ 15365: uvm_test_top.env.agent.driver [apb_driver] Driving transaction : addr = 0x19a0 | write = 0 | wdata = 0x07edfb80791137509 
UVM_INFO ../tb/apb_monitor.sv(29) @ 15425: uvm_test_top.env.agent.monitor [Monitor] addr : 0x19a0 | write : 0 | wdata : 0x0 
UVM_INFO ../tb/apb_driver.sv(20) @ 15425: uvm_test_top.env.agent.driver [apb_driver] Driving transaction : addr = 0x19a4 | write = 0 | wdata = 0x0ac8899c1c49d3de6 
UVM_INFO ../tb/apb_monitor.sv(29) @ 15485: uvm_test_top.env.agent.monitor [Monitor] addr : 0x19a4 | write : 0 | wdata : 0x0 
UVM_INFO ../tb/apb_driver.sv(20) @ 15485: uvm_test_top.env.agent.driver [apb_driver] Driving transaction : addr = 0x19a7 | write = 1 | wdata = 0x05155d6daa20956e0 
UVM_INFO ../tb/apb_monitor.sv(29) @ 15545: uvm_test_top.env.agent.monitor [Monitor] addr : 0x19a7 | write : 1 | wdata : 0x5155d6daa20956e0 
UVM_INFO ../tb/apb_driver.sv(20) @ 15545: uvm_test_top.env.agent.driver [apb_driver] Driving transaction : addr = 0x19a0 | write = 0 | wdata = 0x0c145a5d2f9063db 
UVM_INFO ../tb/apb_monitor.sv(29) @ 15605: uvm_test_top.env.agent.monitor [Monitor] addr : 0x19a0 | write : 0 | wdata : 0x0 
UVM_INFO ../tb/apb_driver.sv(20) @ 15605: uvm_test_top.env.agent.driver [apb_driver] Driving transaction : addr = 0x19a7 | write = 0 | wdata = 0x0ffd93f9d700999d1 
UVM_INFO ../tb/apb_monitor.sv(29) @ 15665: uvm_test_top.env.agent.monitor [Monitor] addr : 0x19a7 | write : 0 | wdata : 0x0 
UVM_INFO ../tb/apb_driver.sv(20) @ 15665: uvm_test_top.env.agent.driver [apb_driver] Driving transaction : addr = 0x119a3 | write = 1 | wdata = 0x05155d6daa20956e0 
UVM_INFO ../tb/apb_monitor.sv(29) @ 15725: uvm_test_top.env.agent.monitor [Monitor] addr : 0x119a3 | write : 1 | wdata : 0x5155d6daa20956e0 
UVM_INFO ../tb/apb_driver.sv(20) @ 15725: uvm_test_top.env.agent.driver [apb_driver] Driving transaction : addr = 0x19a0 | write = 0 | wdata = 0x0ccc4c85e68263134 
UVM_INFO ../tb/apb_monitor.sv(29) @ 15785: uvm_test_top.env.agent.monitor [Monitor] addr : 0x19a0 | write : 0 | wdata : 0x0 
UVM_INFO ../tb/apb_driver.sv(20) @ 15785: uvm_test_top.env.agent.driver [apb_driver] Driving transaction : addr = 0x119a3 | write = 0 | wdata = 0x03d73a751849dd00a 
UVM_INFO ../tb/apb_monitor.sv(29) @ 15845: uvm_test_top.env.agent.monitor [Monitor] addr : 0x119a3 | write : 0 | wdata : 0x0 
UVM_INFO ../tb/apb_driver.sv(20) @ 15845: uvm_test_top.env.agent.driver [apb_driver] Driving transaction : addr = 0xad60 | write = 1 | wdata = 0x051c86f8ec9187f9a 
UVM_INFO ../tb/apb_monitor.sv(29) @ 15905: uvm_test_top.env.agent.monitor [Monitor] addr : 0xad60 | write : 1 | wdata : 0x51c86f8ec9187f9a 
UVM_INFO ../tb/apb_driver.sv(20) @ 15905: uvm_test_top.env.agent.driver [apb_driver] Driving transaction : addr = 0x1ad60 | write = 1 | wdata = 0x0ae37907136e78065 
UVM_INFO ../tb/apb_monitor.sv(29) @ 15965: uvm_test_top.env.agent.monitor [Monitor] addr : 0x1ad60 | write : 1 | wdata : 0xae37907136e78065 
UVM_INFO ../tb/apb_driver.sv(20) @ 15965: uvm_test_top.env.agent.driver [apb_driver] Driving transaction : addr = 0xad60 | write = 0 | wdata = 0x097bca42ffa3f9eb8 
UVM_INFO ../tb/apb_monitor.sv(29) @ 16025: uvm_test_top.env.agent.monitor [Monitor] addr : 0xad60 | write : 0 | wdata : 0x0 
UVM_INFO ../tb/apb_driver.sv(20) @ 16025: uvm_test_top.env.agent.driver [apb_driver] Driving transaction : addr = 0x1ad60 | write = 0 | wdata = 0x03ebc7ff673a8c20 
UVM_INFO ../tb/apb_monitor.sv(29) @ 16085: uvm_test_top.env.agent.monitor [Monitor] addr : 0x1ad60 | write : 0 | wdata : 0x0 
UVM_INFO ../tb/apb_driver.sv(20) @ 16085: uvm_test_top.env.agent.driver [apb_driver] Driving transaction : addr = 0x10ad60 | write = 1 | wdata = 0x0ae37907136e78065 
UVM_INFO ../tb/apb_monitor.sv(29) @ 16145: uvm_test_top.env.agent.monitor [Monitor] addr : 0x10ad60 | write : 1 | wdata : 0xae37907136e78065 
UVM_INFO ../tb/apb_driver.sv(20) @ 16145: uvm_test_top.env.agent.driver [apb_driver] Driving transaction : addr = 0xad60 | write = 0 | wdata = 0x03f8adcad3988af34 
UVM_INFO ../tb/apb_monitor.sv(29) @ 16205: uvm_test_top.env.agent.monitor [Monitor] addr : 0xad60 | write : 0 | wdata : 0x0 
UVM_INFO ../tb/apb_driver.sv(20) @ 16205: uvm_test_top.env.agent.driver [apb_driver] Driving transaction : addr = 0x10ad60 | write = 0 | wdata = 0x0c30f0e2009b5981 
UVM_INFO ../tb/apb_monitor.sv(29) @ 16265: uvm_test_top.env.agent.monitor [Monitor] addr : 0x10ad60 | write : 0 | wdata : 0x0 
UVM_INFO ../tb/apb_driver.sv(20) @ 16265: uvm_test_top.env.agent.driver [apb_driver] Driving transaction : addr = 0x8000ad60 | write = 1 | wdata = 0x0ae37907136e78065 
UVM_INFO ../tb/apb_monitor.sv(29) @ 16325: uvm_test_top.env.agent.monitor [Monitor] addr : 0x8000ad60 | write : 1 | wdata : 0xae37907136e78065 
UVM_INFO ../tb/apb_driver.sv(20) @ 16325: uvm_test_top.env.agent.driver [apb_driver] Driving transaction : addr = 0xad60 | write = 0 | wdata = 0x032fb872b4be0c883 
UVM_INFO ../tb/apb_monitor.sv(29) @ 16385: uvm_test_top.env.agent.monitor [Monitor] addr : 0xad60 | write : 0 | wdata : 0x0 
UVM_INFO ../tb/apb_driver.sv(20) @ 16385: uvm_test_top.env.agent.driver [apb_driver] Driving transaction : addr = 0x8000ad60 | write = 0 | wdata = 0x0d543bfa8ce9259b6 
UVM_INFO ../tb/apb_monitor.sv(29) @ 16445: uvm_test_top.env.agent.monitor [Monitor] addr : 0x8000ad60 | write : 0 | wdata : 0x0 
UVM_INFO ../tb/apb_driver.sv(20) @ 16445: uvm_test_top.env.agent.driver [apb_driver] Driving transaction : addr = 0xad61 | write = 1 | wdata = 0x0ae37907136e78065 
UVM_INFO ../tb/apb_monitor.sv(29) @ 16505: uvm_test_top.env.agent.monitor [Monitor] addr : 0xad61 | write : 1 | wdata : 0xae37907136e78065 
UVM_INFO ../tb/apb_driver.sv(20) @ 16505: uvm_test_top.env.agent.driver [apb_driver] Driving transaction : addr = 0xad60 | write = 0 | wdata = 0x02dd37ede7fd8b024 
UVM_INFO ../tb/apb_monitor.sv(29) @ 16565: uvm_test_top.env.agent.monitor [Monitor] addr : 0xad60 | write : 0 | wdata : 0x0 
UVM_INFO ../tb/apb_driver.sv(20) @ 16565: uvm_test_top.env.agent.driver [apb_driver] Driving transaction : addr = 0xad61 | write = 0 | wdata = 0x071a9b7b1a8758f0c 
UVM_INFO ../tb/apb_monitor.sv(29) @ 16625: uvm_test_top.env.agent.monitor [Monitor] addr : 0xad61 | write : 0 | wdata : 0x0 
UVM_INFO ../tb/apb_driver.sv(20) @ 16625: uvm_test_top.env.agent.driver [apb_driver] Driving transaction : addr = 0xad64 | write = 1 | wdata = 0x0ae37907136e78065 
UVM_INFO ../tb/apb_monitor.sv(29) @ 16685: uvm_test_top.env.agent.monitor [Monitor] addr : 0xad64 | write : 1 | wdata : 0xae37907136e78065 
UVM_INFO ../tb/apb_driver.sv(20) @ 16685: uvm_test_top.env.agent.driver [apb_driver] Driving transaction : addr = 0xad60 | write = 0 | wdata = 0x07baf7317b2ad797d 
UVM_INFO ../tb/apb_monitor.sv(29) @ 16745: uvm_test_top.env.agent.monitor [Monitor] addr : 0xad60 | write : 0 | wdata : 0x0 
UVM_INFO ../tb/apb_driver.sv(20) @ 16745: uvm_test_top.env.agent.driver [apb_driver] Driving transaction : addr = 0xad64 | write = 0 | wdata = 0x0b820aff8246a8550 
UVM_INFO ../tb/apb_monitor.sv(29) @ 16805: uvm_test_top.env.agent.monitor [Monitor] addr : 0xad64 | write : 0 | wdata : 0x0 
UVM_INFO ../tb/apb_driver.sv(20) @ 16805: uvm_test_top.env.agent.driver [apb_driver] Driving transaction : addr = 0xad67 | write = 1 | wdata = 0x0ae37907136e78065 
UVM_INFO ../tb/apb_monitor.sv(29) @ 16865: uvm_test_top.env.agent.monitor [Monitor] addr : 0xad67 | write : 1 | wdata : 0xae37907136e78065 
UVM_INFO ../tb/apb_driver.sv(20) @ 16865: uvm_test_top.env.agent.driver [apb_driver] Driving transaction : addr = 0xad60 | write = 0 | wdata = 0x06801801c2bddf755 
UVM_INFO ../tb/apb_monitor.sv(29) @ 16925: uvm_test_top.env.agent.monitor [Monitor] addr : 0xad60 | write : 0 | wdata : 0x0 
UVM_INFO ../tb/apb_driver.sv(20) @ 16925: uvm_test_top.env.agent.driver [apb_driver] Driving transaction : addr = 0xad67 | write = 0 | wdata = 0x0c34903fe082b0d08 
UVM_INFO ../tb/apb_monitor.sv(29) @ 16985: uvm_test_top.env.agent.monitor [Monitor] addr : 0xad67 | write : 0 | wdata : 0x0 
UVM_INFO ../tb/apb_driver.sv(20) @ 16985: uvm_test_top.env.agent.driver [apb_driver] Driving transaction : addr = 0x1ad63 | write = 1 | wdata = 0x0ae37907136e78065 
UVM_INFO ../tb/apb_monitor.sv(29) @ 17045: uvm_test_top.env.agent.monitor [Monitor] addr : 0x1ad63 | write : 1 | wdata : 0xae37907136e78065 
UVM_INFO ../tb/apb_driver.sv(20) @ 17045: uvm_test_top.env.agent.driver [apb_driver] Driving transaction : addr = 0xad60 | write = 0 | wdata = 0x08154d8dd591da2cb 
UVM_INFO ../tb/apb_monitor.sv(29) @ 17105: uvm_test_top.env.agent.monitor [Monitor] addr : 0xad60 | write : 0 | wdata : 0x0 
UVM_INFO ../tb/apb_driver.sv(20) @ 17105: uvm_test_top.env.agent.driver [apb_driver] Driving transaction : addr = 0x1ad63 | write = 0 | wdata = 0x07e16fd85d8ae9bab 
UVM_INFO ../tb/apb_monitor.sv(29) @ 17165: uvm_test_top.env.agent.monitor [Monitor] addr : 0x1ad63 | write : 0 | wdata : 0x0 
UVM_INFO ../tb/apb_driver.sv(20) @ 17165: uvm_test_top.env.agent.driver [apb_driver] Driving transaction : addr = 0x8198 | write = 1 | wdata = 0x09d15413a218eec08 
UVM_INFO ../tb/apb_monitor.sv(29) @ 17225: uvm_test_top.env.agent.monitor [Monitor] addr : 0x8198 | write : 1 | wdata : 0x9d15413a218eec08 
UVM_INFO ../tb/apb_driver.sv(20) @ 17225: uvm_test_top.env.agent.driver [apb_driver] Driving transaction : addr = 0x18198 | write = 1 | wdata = 0x062eabec5de7113f7 
UVM_INFO ../tb/apb_monitor.sv(29) @ 17285: uvm_test_top.env.agent.monitor [Monitor] addr : 0x18198 | write : 1 | wdata : 0x62eabec5de7113f7 
UVM_INFO ../tb/apb_driver.sv(20) @ 17285: uvm_test_top.env.agent.driver [apb_driver] Driving transaction : addr = 0x8198 | write = 0 | wdata = 0x0df34a48527bf85cb 
UVM_INFO ../tb/apb_monitor.sv(29) @ 17345: uvm_test_top.env.agent.monitor [Monitor] addr : 0x8198 | write : 0 | wdata : 0x0 
UVM_INFO ../tb/apb_driver.sv(20) @ 17345: uvm_test_top.env.agent.driver [apb_driver] Driving transaction : addr = 0x18198 | write = 0 | wdata = 0x0dd6ef9920bda758c 
UVM_INFO ../tb/apb_monitor.sv(29) @ 17405: uvm_test_top.env.agent.monitor [Monitor] addr : 0x18198 | write : 0 | wdata : 0x0 
UVM_INFO ../tb/apb_driver.sv(20) @ 17405: uvm_test_top.env.agent.driver [apb_driver] Driving transaction : addr = 0x108198 | write = 1 | wdata = 0x062eabec5de7113f7 
UVM_INFO ../tb/apb_monitor.sv(29) @ 17465: uvm_test_top.env.agent.monitor [Monitor] addr : 0x108198 | write : 1 | wdata : 0x62eabec5de7113f7 
UVM_INFO ../tb/apb_driver.sv(20) @ 17465: uvm_test_top.env.agent.driver [apb_driver] Driving transaction : addr = 0x8198 | write = 0 | wdata = 0x0b751b40a709ee1f4 
UVM_INFO ../tb/apb_monitor.sv(29) @ 17525: uvm_test_top.env.agent.monitor [Monitor] addr : 0x8198 | write : 0 | wdata : 0x0 
UVM_INFO ../tb/apb_driver.sv(20) @ 17525: uvm_test_top.env.agent.driver [apb_driver] Driving transaction : addr = 0x108198 | write = 0 | wdata = 0x07b3597ce14b17996 
UVM_INFO ../tb/apb_monitor.sv(29) @ 17585: uvm_test_top.env.agent.monitor [Monitor] addr : 0x108198 | write : 0 | wdata : 0x0 
UVM_INFO ../tb/apb_driver.sv(20) @ 17585: uvm_test_top.env.agent.driver [apb_driver] Driving transaction : addr = 0x80008198 | write = 1 | wdata = 0x062eabec5de7113f7 
UVM_INFO ../tb/apb_monitor.sv(29) @ 17645: uvm_test_top.env.agent.monitor [Monitor] addr : 0x80008198 | write : 1 | wdata : 0x62eabec5de7113f7 
UVM_INFO ../tb/apb_driver.sv(20) @ 17645: uvm_test_top.env.agent.driver [apb_driver] Driving transaction : addr = 0x8198 | write = 0 | wdata = 0x073dd20dfc588e8c6 
UVM_INFO ../tb/apb_monitor.sv(29) @ 17705: uvm_test_top.env.agent.monitor [Monitor] addr : 0x8198 | write : 0 | wdata : 0x0 
UVM_INFO ../tb/apb_driver.sv(20) @ 17705: uvm_test_top.env.agent.driver [apb_driver] Driving transaction : addr = 0x80008198 | write = 0 | wdata = 0x0f7ed3f9617d75597 
UVM_INFO ../tb/apb_monitor.sv(29) @ 17765: uvm_test_top.env.agent.monitor [Monitor] addr : 0x80008198 | write : 0 | wdata : 0x0 
UVM_INFO ../tb/apb_driver.sv(20) @ 17765: uvm_test_top.env.agent.driver [apb_driver] Driving transaction : addr = 0x8199 | write = 1 | wdata = 0x062eabec5de7113f7 
UVM_INFO ../tb/apb_monitor.sv(29) @ 17825: uvm_test_top.env.agent.monitor [Monitor] addr : 0x8199 | write : 1 | wdata : 0x62eabec5de7113f7 
UVM_INFO ../tb/apb_driver.sv(20) @ 17825: uvm_test_top.env.agent.driver [apb_driver] Driving transaction : addr = 0x8198 | write = 0 | wdata = 0x0dcd5f1a1ec077f72 
UVM_INFO ../tb/apb_monitor.sv(29) @ 17885: uvm_test_top.env.agent.monitor [Monitor] addr : 0x8198 | write : 0 | wdata : 0x0 
UVM_INFO ../tb/apb_driver.sv(20) @ 17885: uvm_test_top.env.agent.driver [apb_driver] Driving transaction : addr = 0x8199 | write = 0 | wdata = 0x0db5ad2387d375203 
UVM_INFO ../tb/apb_monitor.sv(29) @ 17945: uvm_test_top.env.agent.monitor [Monitor] addr : 0x8199 | write : 0 | wdata : 0x0 
UVM_INFO ../tb/apb_driver.sv(20) @ 17945: uvm_test_top.env.agent.driver [apb_driver] Driving transaction : addr = 0x819c | write = 1 | wdata = 0x062eabec5de7113f7 
UVM_INFO ../tb/apb_monitor.sv(29) @ 18005: uvm_test_top.env.agent.monitor [Monitor] addr : 0x819c | write : 1 | wdata : 0x62eabec5de7113f7 
UVM_INFO ../tb/apb_driver.sv(20) @ 18005: uvm_test_top.env.agent.driver [apb_driver] Driving transaction : addr = 0x8198 | write = 0 | wdata = 0x0d43396f7bbdf5d5a 
UVM_INFO ../tb/apb_monitor.sv(29) @ 18065: uvm_test_top.env.agent.monitor [Monitor] addr : 0x8198 | write : 0 | wdata : 0x0 
UVM_INFO ../tb/apb_driver.sv(20) @ 18065: uvm_test_top.env.agent.driver [apb_driver] Driving transaction : addr = 0x819c | write = 0 | wdata = 0x09a6be9a5670bb039 
UVM_INFO ../tb/apb_monitor.sv(29) @ 18125: uvm_test_top.env.agent.monitor [Monitor] addr : 0x819c | write : 0 | wdata : 0x0 
UVM_INFO ../tb/apb_driver.sv(20) @ 18125: uvm_test_top.env.agent.driver [apb_driver] Driving transaction : addr = 0x819f | write = 1 | wdata = 0x062eabec5de7113f7 
UVM_INFO ../tb/apb_monitor.sv(29) @ 18185: uvm_test_top.env.agent.monitor [Monitor] addr : 0x819f | write : 1 | wdata : 0x62eabec5de7113f7 
UVM_INFO ../tb/apb_driver.sv(20) @ 18185: uvm_test_top.env.agent.driver [apb_driver] Driving transaction : addr = 0x8198 | write = 0 | wdata = 0x02e0cae93193c9a67 
UVM_INFO ../tb/apb_monitor.sv(29) @ 18245: uvm_test_top.env.agent.monitor [Monitor] addr : 0x8198 | write : 0 | wdata : 0x0 
UVM_INFO ../tb/apb_driver.sv(20) @ 18245: uvm_test_top.env.agent.driver [apb_driver] Driving transaction : addr = 0x819f | write = 0 | wdata = 0x0b4076263acf78e1a 
UVM_INFO ../tb/apb_monitor.sv(29) @ 18305: uvm_test_top.env.agent.monitor [Monitor] addr : 0x819f | write : 0 | wdata : 0x0 
UVM_INFO ../tb/apb_driver.sv(20) @ 18305: uvm_test_top.env.agent.driver [apb_driver] Driving transaction : addr = 0x1819b | write = 1 | wdata = 0x062eabec5de7113f7 
UVM_INFO ../tb/apb_monitor.sv(29) @ 18365: uvm_test_top.env.agent.monitor [Monitor] addr : 0x1819b | write : 1 | wdata : 0x62eabec5de7113f7 
UVM_INFO ../tb/apb_driver.sv(20) @ 18365: uvm_test_top.env.agent.driver [apb_driver] Driving transaction : addr = 0x8198 | write = 0 | wdata = 0x04d4ce1114945b5f9 
UVM_INFO ../tb/apb_monitor.sv(29) @ 18425: uvm_test_top.env.agent.monitor [Monitor] addr : 0x8198 | write : 0 | wdata : 0x0 
UVM_INFO ../tb/apb_driver.sv(20) @ 18425: uvm_test_top.env.agent.driver [apb_driver] Driving transaction : addr = 0x1819b | write = 0 | wdata = 0x0e8e28866a75b19a0 
UVM_INFO ../tb/apb_monitor.sv(29) @ 18485: uvm_test_top.env.agent.monitor [Monitor] addr : 0x1819b | write : 0 | wdata : 0x0 
UVM_INFO ../tb/apb_driver.sv(20) @ 18485: uvm_test_top.env.agent.driver [apb_driver] Driving transaction : addr = 0xbe20 | write = 1 | wdata = 0x0b9296a6477302939 
UVM_INFO ../tb/apb_monitor.sv(29) @ 18545: uvm_test_top.env.agent.monitor [Monitor] addr : 0xbe20 | write : 1 | wdata : 0xb9296a6477302939 
UVM_INFO ../tb/apb_driver.sv(20) @ 18545: uvm_test_top.env.agent.driver [apb_driver] Driving transaction : addr = 0x1be20 | write = 1 | wdata = 0x046d6959b88cfd6c6 
UVM_INFO ../tb/apb_monitor.sv(29) @ 18605: uvm_test_top.env.agent.monitor [Monitor] addr : 0x1be20 | write : 1 | wdata : 0x46d6959b88cfd6c6 
UVM_INFO ../tb/apb_driver.sv(20) @ 18605: uvm_test_top.env.agent.driver [apb_driver] Driving transaction : addr = 0xbe20 | write = 0 | wdata = 0x077fb316f334ba452 
UVM_INFO ../tb/apb_monitor.sv(29) @ 18665: uvm_test_top.env.agent.monitor [Monitor] addr : 0xbe20 | write : 0 | wdata : 0x0 
UVM_INFO ../tb/apb_driver.sv(20) @ 18665: uvm_test_top.env.agent.driver [apb_driver] Driving transaction : addr = 0x1be20 | write = 0 | wdata = 0x01d9c7fcbfae88fbc 
UVM_INFO ../tb/apb_monitor.sv(29) @ 18725: uvm_test_top.env.agent.monitor [Monitor] addr : 0x1be20 | write : 0 | wdata : 0x0 
UVM_INFO ../tb/apb_driver.sv(20) @ 18725: uvm_test_top.env.agent.driver [apb_driver] Driving transaction : addr = 0x10be20 | write = 1 | wdata = 0x046d6959b88cfd6c6 
UVM_INFO ../tb/apb_monitor.sv(29) @ 18785: uvm_test_top.env.agent.monitor [Monitor] addr : 0x10be20 | write : 1 | wdata : 0x46d6959b88cfd6c6 
UVM_INFO ../tb/apb_driver.sv(20) @ 18785: uvm_test_top.env.agent.driver [apb_driver] Driving transaction : addr = 0xbe20 | write = 0 | wdata = 0x0a7cc10e900261555 
UVM_INFO ../tb/apb_monitor.sv(29) @ 18845: uvm_test_top.env.agent.monitor [Monitor] addr : 0xbe20 | write : 0 | wdata : 0x0 
UVM_INFO ../tb/apb_driver.sv(20) @ 18845: uvm_test_top.env.agent.driver [apb_driver] Driving transaction : addr = 0x10be20 | write = 0 | wdata = 0x068cdab23caf95db2 
UVM_INFO ../tb/apb_monitor.sv(29) @ 18905: uvm_test_top.env.agent.monitor [Monitor] addr : 0x10be20 | write : 0 | wdata : 0x0 
UVM_INFO ../tb/apb_driver.sv(20) @ 18905: uvm_test_top.env.agent.driver [apb_driver] Driving transaction : addr = 0x8000be20 | write = 1 | wdata = 0x046d6959b88cfd6c6 
UVM_INFO ../tb/apb_monitor.sv(29) @ 18965: uvm_test_top.env.agent.monitor [Monitor] addr : 0x8000be20 | write : 1 | wdata : 0x46d6959b88cfd6c6 
UVM_INFO ../tb/apb_driver.sv(20) @ 18965: uvm_test_top.env.agent.driver [apb_driver] Driving transaction : addr = 0xbe20 | write = 0 | wdata = 0x03782a42ecf474c27 
UVM_INFO ../tb/apb_monitor.sv(29) @ 19025: uvm_test_top.env.agent.monitor [Monitor] addr : 0xbe20 | write : 0 | wdata : 0x0 
UVM_INFO ../tb/apb_driver.sv(20) @ 19025: uvm_test_top.env.agent.driver [apb_driver] Driving transaction : addr = 0x8000be20 | write = 0 | wdata = 0x07010ca7fd6533867 
UVM_INFO ../tb/apb_monitor.sv(29) @ 19085: uvm_test_top.env.agent.monitor [Monitor] addr : 0x8000be20 | write : 0 | wdata : 0x0 
UVM_INFO ../tb/apb_driver.sv(20) @ 19085: uvm_test_top.env.agent.driver [apb_driver] Driving transaction : addr = 0xbe21 | write = 1 | wdata = 0x046d6959b88cfd6c6 
UVM_INFO ../tb/apb_monitor.sv(29) @ 19145: uvm_test_top.env.agent.monitor [Monitor] addr : 0xbe21 | write : 1 | wdata : 0x46d6959b88cfd6c6 
UVM_INFO ../tb/apb_driver.sv(20) @ 19145: uvm_test_top.env.agent.driver [apb_driver] Driving transaction : addr = 0xbe20 | write = 0 | wdata = 0x01352f1216da885a7 
UVM_INFO ../tb/apb_monitor.sv(29) @ 19205: uvm_test_top.env.agent.monitor [Monitor] addr : 0xbe20 | write : 0 | wdata : 0x0 
UVM_INFO ../tb/apb_driver.sv(20) @ 19205: uvm_test_top.env.agent.driver [apb_driver] Driving transaction : addr = 0xbe21 | write = 0 | wdata = 0x0a97b87cb3210c13e 
UVM_INFO ../tb/apb_monitor.sv(29) @ 19265: uvm_test_top.env.agent.monitor [Monitor] addr : 0xbe21 | write : 0 | wdata : 0x0 
UVM_INFO ../tb/apb_driver.sv(20) @ 19265: uvm_test_top.env.agent.driver [apb_driver] Driving transaction : addr = 0xbe24 | write = 1 | wdata = 0x046d6959b88cfd6c6 
UVM_INFO ../tb/apb_monitor.sv(29) @ 19325: uvm_test_top.env.agent.monitor [Monitor] addr : 0xbe24 | write : 1 | wdata : 0x46d6959b88cfd6c6 
UVM_INFO ../tb/apb_driver.sv(20) @ 19325: uvm_test_top.env.agent.driver [apb_driver] Driving transaction : addr = 0xbe20 | write = 0 | wdata = 0x08087361da1d93660 
UVM_INFO ../tb/apb_monitor.sv(29) @ 19385: uvm_test_top.env.agent.monitor [Monitor] addr : 0xbe20 | write : 0 | wdata : 0x0 
